***BUSMASTER Ver 3.2.2***
***PROTOCOL CAN***
***NOTE: PLEASE DO NOT EDIT THIS DOCUMENT***
***[START LOGGING SESSION]***
***START DATE AND TIME 25:11:2020 11:49:12:109***
***HEX***
***SYSTEM MODE***
***START CHANNEL BAUD RATE***
***CHANNEL 1 -  - 250000 bps***
***END CHANNEL BAUD RATE***
***START DATABASE FILES***
***END DATABASE FILES***
***<Time><Tx/Rx><Channel><CAN ID><Type><DLC><DataBytes>***
11:49:12:1020 Rx 1 0x10F01A01 x 8 00 00 FF FF FF FF FF FF 
11:49:12:1020 Rx 1 0x10FCFD01 x 8 FF FF FF FF 00 00 FF FF 
11:49:12:1030 Rx 1 0x18FD9401 x 8 20 42 FF FF 00 00 20 03 
11:49:12:1040 Rx 1 0x18FDA101 x 8 00 04 FF FF FF FF 00 FF 
11:49:12:1040 Rx 1 0x10FDA301 x 8 FF FF FF FF FF FF FF FF 
11:49:12:1050 Rx 1 0x18FDAA01 x 8 FF FF FF FF FF FF FF 33 
11:49:12:1060 Rx 1 0x18FDD001 x 8 FF FF FF 00 33 FF FF FF 
11:49:12:1060 Rx 1 0xCF00400 x 8 08 7D 7D 00 00 00 FC 7D 
11:49:12:1070 Rx 1 0x18FDC40B x 8 1F 00 FF FF FF FF FF FF 
11:49:12:1070 Rx 1 0xCF00203 x 8 CC 00 00 0B FF 00 00 03 
11:49:12:1080 Rx 1 0x1CFE9201 x 8 FF 00 71 FF FF FF FF FF 
11:49:12:1080 Rx 1 0x18F0000F x 8 00 7D FF FF 0F 7D FF FF 
11:49:12:1090 Rx 1 0x18FEDB01 x 8 89 00 89 00 89 00 FF FF 
11:49:12:1100 Rx 1 0x18F00E3D x 8 88 90 FF FF FF FF FF FF 
11:49:12:1100 Rx 1 0x18F00F3D x 8 88 90 FF FF FF FF FF FF 
11:49:12:1110 Rx 1 0x18FD8C3D x 8 00 00 04 00 FF FF FF FF 
11:49:12:1110 Rx 1 0x18FDB23D x 8 FF FF 13 24 00 00 FF FF 
11:49:12:1120 Rx 1 0x8FE6E0B x 8 00 00 00 00 00 00 00 00 
11:49:12:1130 Rx 1 0x18FDB300 x 8 FF FF 51 24 FF FF FF FF 
11:49:12:1130 Rx 1 0x10FF2121 x 8 32 00 0F C0 C0 FF FF 7D 
11:49:12:1140 Rx 1 0x18FDB400 x 8 51 24 51 24 FF FF FF FF 
11:49:12:1150 Rx 1 0x14FF3131 x 8 00 30 03 00 00 FF FF F0 
11:49:12:1160 Rx 1 0xCF00400 x 8 08 7D 7D 00 00 00 FC 7D 
11:49:12:1160 Rx 1 0x1CEBFF00 x 8 03 FF FF FF FF FF FF FF 
11:49:12:1170 Rx 1 0xCF00203 x 8 CC 00 00 0B FF 00 00 03 
11:49:12:1170 Rx 1 0x18FF3000 x 8 00 00 FF FF FF FF FF FF 
11:49:12:1230 Rx 1 0x14FF2321 x 8 F4 5D E1 FF FF FF FF FF 
11:49:12:1250 Rx 1 0xCF00400 x 8 08 7D 7D 00 00 00 FC 7D 
11:49:12:1260 Rx 1 0xCF00203 x 8 CC 00 00 0B FF 00 00 03 
11:49:12:1260 Rx 1 0xCF00300 x 8 D1 00 00 FF FF FF 00 FF 
11:49:12:1270 Rx 1 0x14FFA000 x 8 FC FF FF FF FF FF FF FF 
11:49:12:1270 Rx 1 0x18FEF200 x 8 00 00 00 00 D1 05 FF FF 
11:49:12:1290 Rx 1 0xC000003 x 8 FB FF FA E1 FF F0 FF FF 
11:49:12:1320 Rx 1 0x8FE6E0B x 8 00 00 00 00 00 00 00 00 
11:49:12:1330 Rx 1 0x14FF0121 x 8 FF FF FF FF FF FF FC FF 
11:49:12:1340 Rx 1 0x14F00031 x 8 CF FF FF FF FF FF FF FF 
11:49:12:1350 Rx 1 0xCF00400 x 8 08 7D 7D 00 00 00 FC 7D 
11:49:12:1360 Rx 1 0xCF00203 x 8 CC 00 00 0B FF 00 00 03 
11:49:12:1360 Rx 1 0x18FEDF00 x 8 7D 00 13 FF 7D 00 00 FF 
11:49:12:1420 Rx 1 0x18F0233D x 8 FF FF FF FF FF 0C FF FF 
11:49:12:1420 Rx 1 0x18FD413D x 8 FF FF FF FF FC FC FC FC 
11:49:12:1430 Rx 1 0x14FF0221 x 8 FF FF FF FF FF FF FF FF 
11:49:12:1440 Rx 1 0x14F00131 x 8 FF FF FF FF 00 FF FF FF 
11:49:12:1450 Rx 1 0x18A9FE31 x 8 FF FF FF FF FF FF FF FF 
11:49:12:1450 Rx 1 0xCF00400 x 8 08 7D 7D 00 00 00 FC 7D 
11:49:12:1460 Rx 1 0xCF00203 x 8 CC 00 00 0B FF 00 00 03 
11:49:12:1510 Rx 1 0xCF00A01 x 8 00 00 00 00 FF FF FF FF 
11:49:12:1520 Rx 1 0x8FE6E0B x 8 00 00 00 00 00 00 00 00 
11:49:12:1520 Rx 1 0x10F01A01 x 8 00 00 FF FF FF FF FF FF 
11:49:12:1530 Rx 1 0x18FEF117 x 8 F7 FF FF FF FF FF FF FF 
11:49:12:1540 Rx 1 0x14FEF121 x 8 F7 FF FF CF FF FF FF FF 
11:49:12:1540 Rx 1 0x18FF2017 x 8 00 00 00 00 00 00 00 00 
11:49:12:1550 Rx 1 0x18F00E3D x 8 88 90 FF FF FF FF FF FF 
11:49:12:1560 Rx 1 0xCF00400 x 8 08 7D 7D 00 00 00 FC 7D 
11:49:12:1560 Rx 1 0x18F00F3D x 8 88 90 FF FF FF FF FF FF 
11:49:12:1570 Rx 1 0xCF00203 x 8 CC 00 00 0B FF 00 00 03 
11:49:12:1570 Rx 1 0x18FEF000 x 8 FF FF FF 00 00 FC 00 FF 
11:49:12:1630 Rx 1 0x10FF2121 x 8 32 00 0F C0 C0 FF FF 7D 
11:49:12:1640 Rx 1 0x14FEF131 x 8 CF FF FF F3 00 FF FF 30 
11:49:12:1640 Rx 1 0x18FF2221 x 8 03 00 CF 57 33 F7 FF FF 
11:49:12:1650 Rx 1 0xCF00400 x 8 08 7D 7D 00 00 00 FC 7D 
11:49:12:1660 Rx 1 0x1CEBFF00 x 8 04 FF FF FF FF FF FF FF 
11:49:12:1660 Rx 1 0xCF00203 x 8 CC 00 00 0B FF 00 00 03 
11:49:12:1670 Rx 1 0x14FD3E00 x 8 10 24 FF 10 24 FF FF FF 
11:49:12:1670 Rx 1 0x18FEE000 x 8 FC 7E 42 00 FC 7E 42 00 
11:49:12:1720 Rx 1 0x8FE6E0B x 8 00 00 00 00 00 00 00 00 
11:49:12:1730 Rx 1 0xCF00421 x 8 FF FF FF FF FF FF FF FF 
11:49:12:1750 Rx 1 0xCF00400 x 8 08 7D 7D 00 00 00 FC 7D 
11:49:12:1760 Rx 1 0xCF00203 x 8 CC 00 00 0B FF 00 00 03 
11:49:12:1760 Rx 1 0xCF00300 x 8 D1 00 00 FF FF FF 00 FF 
11:49:12:1770 Rx 1 0x18FEF100 x 8 C7 00 00 00 00 00 00 30 
11:49:12:1830 Rx 1 0x14FDA421 x 8 FF FF FF FF FF FF FF FF 
11:49:12:1850 Rx 1 0x18FEBF0B x 8 00 00 7D 7D 7D 7D FF FF 
11:49:12:1860 Rx 1 0xCF00400 x 8 08 7D 7D 00 00 00 FC 7D 
11:49:12:1860 Rx 1 0xCF00203 x 8 CC 00 00 0B FF 00 00 03 
11:49:12:1870 Rx 1 0x18FEDF00 x 8 7D 00 13 FF 7D 00 00 FF 
11:49:12:1870 Rx 1 0x18FE4A03 x 8 FF CD 00 FF C0 F3 FA FF 
11:49:12:1880 Rx 1 0x18F00503 x 8 7D 00 00 7D 4E 20 4E 20 
11:49:12:1920 Rx 1 0x8FE6E0B x 8 00 00 00 00 00 00 00 00 
11:49:12:1920 Rx 1 0x18F0233D x 8 FF FF FF FF FF 0C FF FF 
11:49:12:1930 Rx 1 0x14FEF031 x 8 FF FF FF FF FF FC 00 FF 
11:49:12:1950 Rx 1 0xCF00400 x 8 08 7D 7D 00 00 00 FC 7D 
11:49:12:1960 Rx 1 0x18FE4F3E x 8 CF FF FF FF FF FF FF FF 
11:49:12:1960 Rx 1 0xCF00203 x 8 CC 00 00 0B FF 00 00 03 
11:49:12:1970 Rx 1 0x18F00100 x 8 FF FF FF FF 00 FF FF FF 
11:49:12:2010 Rx 1 0xCF00A01 x 8 00 00 00 00 FF FF FF FF 
11:49:12:2010 Rx 1 0x18F0010B x 8 00 00 D0 FF FF 0D FF FF 
11:49:12:2020 Rx 1 0x10F01A01 x 8 00 00 FF FF FF FF FF FF 
11:49:12:2020 Rx 1 0x10FCFD01 x 8 FF FF FF FF 00 00 FF FF 
11:49:12:2030 Rx 1 0x18FD9401 x 8 20 42 FF FF 00 00 20 03 
11:49:12:2040 Rx 1 0x18FDA101 x 8 00 04 FF FF FF FF 00 FF 
11:49:12:2040 Rx 1 0x10FDA301 x 8 FF FF FF FF FF FF FF FF 
11:49:12:2050 Rx 1 0x18FDAA01 x 8 FF FF FF FF FF FF FF 33 
11:49:12:2050 Rx 1 0x18FDD001 x 8 FF FF FF 00 33 FF FF FF 
11:49:12:2060 Rx 1 0xCF00400 x 8 08 7D 7D 00 00 00 FC 7D 
11:49:12:2070 Rx 1 0x18FDC40B x 8 1F 00 FF FF FF FF FF FF 
11:49:12:2070 Rx 1 0xCF00203 x 8 CC 00 00 0B FF 00 00 03 
11:49:12:2080 Rx 1 0x1CFE9201 x 8 FF 00 71 FF FF FF FF FF 
11:49:12:2080 Rx 1 0x18F0000F x 8 00 7D FF FF 0F 7D FF FF 
11:49:12:2090 Rx 1 0x18FEDB01 x 8 89 00 89 00 89 00 FF FF 
11:49:12:2100 Rx 1 0x18FEF600 x 8 FF 00 37 33 FF 50 24 FF 
11:49:12:2100 Rx 1 0x18F00E3D x 8 88 90 FF FF FF FF FF FF 
11:49:12:2110 Rx 1 0x18F00F3D x 8 88 90 FF FF FF FF FF FF 
11:49:12:2110 Rx 1 0x18FD8C3D x 8 00 00 04 00 FF FF FF FF 
11:49:12:2120 Rx 1 0x8FE6E0B x 8 00 00 00 00 00 00 00 00 
11:49:12:2120 Rx 1 0x18FDB23D x 8 FF FF 13 24 00 00 FF FF 
11:49:12:2130 Rx 1 0x10FF2121 x 8 32 00 0F C0 C0 FF FF 7D 
11:49:12:2140 Rx 1 0x18FDB300 x 8 FF FF 51 24 FF FF FF FF 
11:49:12:2140 Rx 1 0x14FF3131 x 8 00 30 03 00 00 FF FF F0 
11:49:12:2150 Rx 1 0x18FDB400 x 8 51 24 51 24 FF FF FF FF 
11:49:12:2150 Rx 1 0xCF00400 x 8 08 7D 7D 00 00 00 FC 7D 
11:49:12:2160 Rx 1 0x1CEBFF00 x 8 05 FF FF FF FF 5D 60 03 
11:49:12:2160 Rx 1 0xCF00203 x 8 CC 00 00 0B FF 00 00 03 
11:49:12:2170 Rx 1 0x18FF3000 x 8 00 00 FF FF FF FF FF FF 
11:49:12:2230 Rx 1 0x14FF2321 x 8 F4 5D E1 FF FF FF FF FF 
11:49:12:2250 Rx 1 0xCF00400 x 8 08 7D 7D 00 00 00 FC 7D 
11:49:12:2260 Rx 1 0xCF00203 x 8 CC 00 00 0B FF 00 00 03 
11:49:12:2260 Rx 1 0xCF00300 x 8 D1 00 00 FF FF FF 00 FF 
11:49:12:2270 Rx 1 0x14FFA000 x 8 FC FF FF FF FF FF FF FF 
11:49:12:2270 Rx 1 0x18FEF200 x 8 00 00 00 00 D1 05 FF FF 
11:49:12:2290 Rx 1 0xC000003 x 8 FB FF FA E1 FF F0 FF FF 
11:49:12:2320 Rx 1 0x8FE6E0B x 8 00 00 00 00 00 00 00 00 
11:49:12:2330 Rx 1 0x14FF0121 x 8 FF FF FF FF FF FF FC FF 
11:49:12:2340 Rx 1 0x14F00031 x 8 CF FF FF FF FF FF FF FF 
11:49:12:2350 Rx 1 0xCF00400 x 8 08 7D 7D 00 00 00 FC 7D 
11:49:12:2360 Rx 1 0xCF00203 x 8 CC 00 00 0B FF 00 00 03 
11:49:12:2360 Rx 1 0x18FEDF00 x 8 7D 00 13 FF 7D 00 00 FF 
11:49:12:2420 Rx 1 0x18F0233D x 8 FF FF FF FF FF 0C FF FF 
11:49:12:2420 Rx 1 0x18FD413D x 8 FF FF FF FF FC FC FC FC 
11:49:12:2430 Rx 1 0x14FF0221 x 8 FF FF FF FF FF FF FF FF 
11:49:12:2440 Rx 1 0x14F00131 x 8 FF FF FF FF 00 FF FF FF 
11:49:12:2450 Rx 1 0xCF00400 x 8 08 7D 7D 00 00 00 FC 7D 
11:49:12:2460 Rx 1 0xCF00203 x 8 CC 00 00 0B FF 00 00 03 
11:49:12:2510 Rx 1 0xCF00A01 x 8 00 00 00 00 FF FF FF FF 
11:49:12:2520 Rx 1 0x8FE6E0B x 8 00 00 00 00 00 00 00 00 
11:49:12:2520 Rx 1 0x10F01A01 x 8 00 00 FF FF FF FF FF FF 
11:49:12:2530 Rx 1 0x18FEF117 x 8 F7 FF FF FF FF FF FF FF 
11:49:12:2530 Rx 1 0x14FEF121 x 8 F7 FF FF CF FF FF FF FF 
11:49:12:2540 Rx 1 0x18FF2017 x 8 00 00 00 00 00 00 00 00 
11:49:12:2550 Rx 1 0x18F00E3D x 8 88 90 FF FF FF FF FF FF 
11:49:12:2550 Rx 1 0x18F00F3D x 8 88 90 FF FF FF FF FF FF 
11:49:12:2560 Rx 1 0xCF00400 x 8 08 7D 7D 00 00 00 FC 7D 
11:49:12:2560 Rx 1 0xCF00203 x 8 CC 00 00 0B FF 00 00 03 
11:49:12:2570 Rx 1 0x18FEF000 x 8 FF FF FF 00 00 FC 00 FF 
11:49:12:2630 Rx 1 0x10FF2121 x 8 32 00 0F C0 C0 FF FF 7D 
11:49:12:2640 Rx 1 0x14FEF131 x 8 CF FF FF F3 00 FF FF 30 
11:49:12:2650 Rx 1 0xCF00400 x 8 08 7D 7D 00 00 00 FC 7D 
11:49:12:2660 Rx 1 0x1CEBFF00 x 8 06 00 3C 02 00 00 FF FF 
11:49:12:2660 Rx 1 0xCF00203 x 8 CC 00 00 0B FF 00 00 03 
11:49:12:2670 Rx 1 0x18FEE000 x 8 FC 7E 42 00 FC 7E 42 00 
11:49:12:2720 Rx 1 0x8FE6E0B x 8 00 00 00 00 00 00 00 00 
11:49:12:2730 Rx 1 0xCF00421 x 8 FF FF FF FF FF FF FF FF 
11:49:12:2750 Rx 1 0xCF00400 x 8 08 7D 7D 00 00 00 FC 7D 
11:49:12:2760 Rx 1 0xCF00203 x 8 CC 00 00 0B FF 00 00 03 
11:49:12:2760 Rx 1 0xCF00300 x 8 D1 00 00 FF FF FF 00 FF 
11:49:12:2770 Rx 1 0x18FEF100 x 8 C7 00 00 00 00 00 00 30 
11:49:12:2830 Rx 1 0x14FDA421 x 8 FF FF FF FF FF FF FF FF 
11:49:12:2850 Rx 1 0xCF00400 x 8 08 7D 7D 00 00 00 FC 7D 
11:49:12:2860 Rx 1 0x18FEBF0B x 8 00 00 7D 7D 7D 7D FF FF 
11:49:12:2860 Rx 1 0xCF00203 x 8 CC 00 00 0B FF 00 00 03 
11:49:12:2870 Rx 1 0x18FEDF00 x 8 7D 00 13 FF 7D 00 00 FF 
11:49:12:2870 Rx 1 0x18FE4A03 x 8 FF CD 00 FF C0 F3 FA FF 
11:49:12:2880 Rx 1 0x18F00503 x 8 7D 00 00 7D 4E 20 4E 20 
11:49:12:2920 Rx 1 0x8FE6E0B x 8 00 00 00 00 00 00 00 00 
11:49:12:2920 Rx 1 0x18F0233D x 8 FF FF FF FF FF 0C FF FF 
11:49:12:2930 Rx 1 0x14FEF031 x 8 FF FF FF FF FF FC 00 FF 
11:49:12:2950 Rx 1 0xCF00400 x 8 08 7D 7D 00 00 00 FC 7D 
11:49:12:2960 Rx 1 0xCF00203 x 8 CC 00 00 0B FF 00 00 03 
11:49:12:2960 Rx 1 0x18FE4F3E x 8 CF FF FF FF FF FF FF FF 
11:49:12:2970 Rx 1 0x18F00100 x 8 FF FF FF FF 00 FF FF FF 
11:49:12:3010 Rx 1 0xCF00A01 x 8 00 00 00 00 FF FF FF FF 
11:49:12:3010 Rx 1 0x18F0010B x 8 00 00 D0 FF FF 0D FF FF 
11:49:12:3020 Rx 1 0x10F01A01 x 8 00 00 FF FF FF FF FF FF 
11:49:12:3020 Rx 1 0x10FCFD01 x 8 FF FF FF FF 00 00 FF FF 
11:49:12:3030 Rx 1 0x18FD9401 x 8 20 42 FF FF 00 00 20 03 
11:49:12:3040 Rx 1 0x18FDA101 x 8 00 04 FF FF FF FF 00 FF 
11:49:12:3040 Rx 1 0x10FDA301 x 8 FF FF FF FF FF FF FF FF 
11:49:12:3050 Rx 1 0x18FDAA01 x 8 FF FF FF FF FF FF FF 33 
11:49:12:3050 Rx 1 0x18FDD001 x 8 FF FF FF 00 33 FF FF FF 
11:49:12:3060 Rx 1 0xCF00400 x 8 08 7D 7D 00 00 00 FC 7D 
11:49:12:3070 Rx 1 0x18FDC40B x 8 1F 00 FF FF FF FF FF FF 
11:49:12:3070 Rx 1 0xCF00203 x 8 CC 00 00 0B FF 00 00 03 
11:49:12:3080 Rx 1 0x1CFE9201 x 8 FF 00 71 FF FF FF FF FF 
11:49:12:3080 Rx 1 0x18F0000F x 8 00 7D FF FF 0F 7D FF FF 
11:49:12:3090 Rx 1 0x18FEDB01 x 8 89 00 89 00 89 00 FF FF 
11:49:12:3090 Rx 1 0x18F00E3D x 8 88 90 FF FF FF FF FF FF 
11:49:12:3100 Rx 1 0x18FD6501 x 8 05 02 FF FF FF FF FF FF 
11:49:12:3110 Rx 1 0x18F00F3D x 8 88 90 FF FF FF FF FF FF 
11:49:12:3110 Rx 1 0x18FD8C3D x 8 00 00 04 00 FF FF FF FF 
11:49:12:3120 Rx 1 0x8FE6E0B x 8 00 00 00 00 00 00 00 00 
11:49:12:3120 Rx 1 0x18FDB23D x 8 FF FF 13 24 00 00 FF FF 
11:49:12:3130 Rx 1 0x10FF2121 x 8 32 00 0F C0 C0 FF FF 7D 
11:49:12:3140 Rx 1 0x18FDB300 x 8 FF FF 51 24 FF FF FF FF 
11:49:12:3140 Rx 1 0x14FF3131 x 8 00 30 03 00 00 FF FF F0 
11:49:12:3150 Rx 1 0x18FDB400 x 8 51 24 51 24 FF FF FF FF 
11:49:12:3150 Rx 1 0xCF00400 x 8 08 7D 7D 00 00 00 FC 7D 
11:49:12:3160 Rx 1 0xCF00203 x 8 CC 00 00 0B FF 00 00 03 
11:49:12:3170 Rx 1 0x18FF3000 x 8 00 00 FF FF FF FF FF FF 
11:49:12:3230 Rx 1 0x14FF2321 x 8 F4 5D E1 FF FF FF FF FF 
11:49:12:3250 Rx 1 0xCF00400 x 8 08 7D 7D 00 00 00 FC 7D 
11:49:12:3260 Rx 1 0xCF00203 x 8 CC 00 00 0B FF 00 00 03 
11:49:12:3260 Rx 1 0xCF00300 x 8 D1 00 00 FF FF FF 00 FF 
11:49:12:3270 Rx 1 0x14FFA000 x 8 FC FF FF FF FF FF FF FF 
11:49:12:3270 Rx 1 0x18FEF200 x 8 00 00 00 00 D1 05 FF FF 
11:49:12:3290 Rx 1 0xC000003 x 8 FB FF FA E1 FF F0 FF FF 
11:49:12:3320 Rx 1 0x8FE6E0B x 8 00 00 00 00 00 00 00 00 
11:49:12:3330 Rx 1 0x14FF0121 x 8 FF FF FF FF FF FF FC FF 
11:49:12:3340 Rx 1 0x14F00031 x 8 CF FF FF FF FF FF FF FF 
11:49:12:3350 Rx 1 0xCF00400 x 8 08 7D 7D 00 00 00 FC 7D 
11:49:12:3360 Rx 1 0xCF00203 x 8 CC 00 00 0B FF 00 00 03 
11:49:12:3360 Rx 1 0x18FEDF00 x 8 7D 00 13 FF 7D 00 00 FF 
11:49:12:3420 Rx 1 0x18F0233D x 8 FF FF FF FF FF 0C FF FF 
11:49:12:3420 Rx 1 0x18FD413D x 8 FF FF FF FF FC FC FC FC 
11:49:12:3430 Rx 1 0x14FF0221 x 8 FF FF FF FF FF FF FF FF 
11:49:12:3440 Rx 1 0x14F00131 x 8 FF FF FF FF 00 FF FF FF 
11:49:12:3450 Rx 1 0xCF00400 x 8 08 7D 7D 00 00 00 FC 7D 
11:49:12:3460 Rx 1 0xCF00203 x 8 CC 00 00 0B FF 00 00 03 
11:49:12:3510 Rx 1 0xCF00A01 x 8 00 00 00 00 FF FF FF FF 
11:49:12:3520 Rx 1 0x8FE6E0B x 8 00 00 00 00 00 00 00 00 
11:49:12:3520 Rx 1 0x10F01A01 x 8 00 00 FF FF FF FF FF FF 
11:49:12:3530 Rx 1 0x18FEF117 x 8 F7 FF FF FF FF FF FF FF 
11:49:12:3530 Rx 1 0x14FEF121 x 8 F7 FF FF CF FF FF FF FF 
11:49:12:3540 Rx 1 0x18FF2017 x 8 00 00 00 00 00 00 00 00 
11:49:12:3550 Rx 1 0x18F00E3D x 8 88 90 FF FF FF FF FF FF 
11:49:12:3550 Rx 1 0x18F00F3D x 8 88 90 FF FF FF FF FF FF 
11:49:12:3560 Rx 1 0xCF00400 x 8 08 7D 7D 00 00 00 FC 7D 
11:49:12:3560 Rx 1 0xCF00203 x 8 CC 00 00 0B FF 00 00 03 
11:49:12:3570 Rx 1 0x18FEF000 x 8 FF FF FF 00 00 FC 00 FF 
11:49:12:3630 Rx 1 0x10FF2121 x 8 32 00 0F C0 C0 FF FF 7D 
11:49:12:3640 Rx 1 0x14FEF131 x 8 CF FF FF F3 00 FF FF 30 
11:49:12:3650 Rx 1 0xCF00400 x 8 08 7D 7D 00 00 00 FC 7D 
11:49:12:3660 Rx 1 0xCF00203 x 8 CC 00 00 0B FF 00 00 03 
11:49:12:3660 Rx 1 0x18FEE000 x 8 FC 7E 42 00 FC 7E 42 00 
11:49:12:3720 Rx 1 0x8FE6E0B x 8 00 00 00 00 00 00 00 00 
11:49:12:3730 Rx 1 0xCF00421 x 8 FF FF FF FF FF FF FF FF 
11:49:12:3750 Rx 1 0xCF00400 x 8 08 7D 7D 00 00 00 FC 7D 
11:49:12:3760 Rx 1 0xCF00203 x 8 CC 00 00 0B FF 00 00 03 
11:49:12:3760 Rx 1 0xCF00300 x 8 D1 00 00 FF FF FF 00 FF 
11:49:12:3770 Rx 1 0x18FEF100 x 8 C7 00 00 00 00 00 00 30 
11:49:12:3830 Rx 1 0x14FDA421 x 8 FF FF FF FF FF FF FF FF 
11:49:12:3850 Rx 1 0xCF00400 x 8 08 7D 7D 00 00 00 FC 7D 
11:49:12:3860 Rx 1 0x18FEBF0B x 8 00 00 7D 7D 7D 7D FF FF 
11:49:12:3860 Rx 1 0xCF00203 x 8 CC 00 00 0B FF 00 00 03 
11:49:12:3870 Rx 1 0x18FEDF00 x 8 7D 00 13 FF 7D 00 00 FF 
11:49:12:3870 Rx 1 0x18FE4A03 x 8 FF CD 00 FF C0 F3 FA FF 
11:49:12:3880 Rx 1 0x18F00503 x 8 7D 00 00 7D 4E 20 4E 20 
11:49:12:3920 Rx 1 0x8FE6E0B x 8 00 00 00 00 00 00 00 00 
11:49:12:3920 Rx 1 0x18F0233D x 8 FF FF FF FF FF 0C FF FF 
11:49:12:3930 Rx 1 0x14FEF031 x 8 FF FF FF FF FF FC 00 FF 
11:49:12:3950 Rx 1 0xCF00400 x 8 08 7D 7D 00 00 00 FC 7D 
11:49:12:3960 Rx 1 0xCF00203 x 8 CC 00 00 0B FF 00 00 03 
11:49:12:3960 Rx 1 0x18FE4F3E x 8 CF FF FF FF FF FF FF FF 
11:49:12:3970 Rx 1 0x18F00100 x 8 FF FF FF FF 00 FF FF FF 
11:49:12:4010 Rx 1 0xCF00A01 x 8 00 00 00 00 FF FF FF FF 
11:49:12:4010 Rx 1 0x18F0010B x 8 00 00 D0 FF FF 0D FF FF 
11:49:12:4020 Rx 1 0x10F01A01 x 8 00 00 FF FF FF FF FF FF 
11:49:12:4020 Rx 1 0x10FCFD01 x 8 FF FF FF FF 00 00 FF FF 
11:49:12:4030 Rx 1 0x18FD9401 x 8 20 42 FF FF 00 00 20 03 
11:49:12:4040 Rx 1 0x18FF2421 x 8 83 F0 FF FF FF FF FF FF 
11:49:12:4040 Rx 1 0x18FDA101 x 8 00 04 FF FF FF FF 00 FF 
11:49:12:4050 Rx 1 0x10FDA301 x 8 FF FF FF FF FF FF FF FF 
11:49:12:4050 Rx 1 0x18FDAA01 x 8 FF FF FF FF FF FF FF 33 
11:49:12:4060 Rx 1 0xCF00400 x 8 08 7D 7D 00 00 00 FC 7D 
11:49:12:4070 Rx 1 0x18FDC40B x 8 1F 00 FF FF FF FF FF FF 
11:49:12:4070 Rx 1 0xCF00203 x 8 CC 00 00 0B FF 00 00 03 
11:49:12:4080 Rx 1 0x18FDD001 x 8 FF FF FF 00 33 FF FF FF 
11:49:12:4080 Rx 1 0x18F0000F x 8 00 7D FF FF 0F 7D FF FF 
11:49:12:4090 Rx 1 0x1CFE9201 x 8 FF 00 71 FF FF FF FF FF 
11:49:12:4090 Rx 1 0x18FEDB01 x 8 89 00 89 00 89 00 FF FF 
11:49:12:4100 Rx 1 0x18F00E3D x 8 88 90 FF FF FF FF FF FF 
11:49:12:4110 Rx 1 0x18F00F3D x 8 88 90 FF FF FF FF FF FF 
11:49:12:4110 Rx 1 0x18FD8C3D x 8 00 00 04 00 FF FF FF FF 
11:49:12:4120 Rx 1 0x8FE6E0B x 8 00 00 00 00 00 00 00 00 
11:49:12:4120 Rx 1 0x18FDB23D x 8 FF FF 13 24 00 00 FF FF 
11:49:12:4130 Rx 1 0x18FDB300 x 8 FF FF 51 24 FF FF FF FF 
11:49:12:4140 Rx 1 0x10FF2121 x 8 32 00 0F C0 C0 FF FF 7D 
11:49:12:4140 Rx 1 0x18FDB400 x 8 51 24 51 24 FF FF FF FF 
11:49:12:4150 Rx 1 0x14FF3131 x 8 00 30 03 00 00 FF FF F0 
11:49:12:4150 Rx 1 0xCF00400 x 8 08 7D 7D 00 00 00 FC 7D 
11:49:12:4160 Rx 1 0xCF00203 x 8 CC 00 00 0B FF 00 00 03 
11:49:12:4160 Rx 1 0x18FF3000 x 8 00 00 FF FF FF FF FF FF 
11:49:12:4230 Rx 1 0x14FF2321 x 8 F4 5D E1 FF FF FF FF FF 
11:49:12:4250 Rx 1 0xCF00400 x 8 08 7D 7D 00 00 00 FC 7D 
11:49:12:4260 Rx 1 0xCF00203 x 8 CC 00 00 0B FF 00 00 03 
11:49:12:4260 Rx 1 0xCF00300 x 8 D1 00 00 FF FF FF 00 FF 
11:49:12:4270 Rx 1 0x14FFA000 x 8 FC FF FF FF FF FF FF FF 
11:49:12:4270 Rx 1 0x18FEF200 x 8 00 00 00 00 D1 05 FF FF 
11:49:12:4290 Rx 1 0xC000003 x 8 FB FF FA E1 FF F0 FF FF 
11:49:12:4320 Rx 1 0x8FE6E0B x 8 00 00 00 00 00 00 00 00 
11:49:12:4330 Rx 1 0x14FF0121 x 8 FF FF FF FF FF FF FC FF 
11:49:12:4340 Rx 1 0x14F00031 x 8 CF FF FF FF FF FF FF FF 
11:49:12:4350 Rx 1 0xCF00400 x 8 08 7D 7D 00 00 00 FC 7D 
11:49:12:4360 Rx 1 0xCF00203 x 8 CC 00 00 0B FF 00 00 03 
11:49:12:4360 Rx 1 0x18FEDF00 x 8 7D 00 13 FF 7D 00 00 FF 
11:49:12:4420 Rx 1 0x18F0233D x 8 FF FF FF FF FF 0C FF FF 
11:49:12:4420 Rx 1 0x18FD413D x 8 FF FF FF FF FC FC FC FC 
11:49:12:4430 Rx 1 0x14FF0221 x 8 FF FF FF FF FF FF FF FF 
11:49:12:4440 Rx 1 0x14F00131 x 8 FF FF FF FF 00 FF FF FF 
11:49:12:4450 Rx 1 0xCF00400 x 8 08 7D 7D 00 00 00 FC 7D 
11:49:12:4460 Rx 1 0xCF00203 x 8 CC 00 00 0B FF 00 00 03 
11:49:12:4510 Rx 1 0xCF00A01 x 8 00 00 00 00 FF FF FF FF 
11:49:12:4520 Rx 1 0x8FE6E0B x 8 00 00 00 00 00 00 00 00 
11:49:12:4520 Rx 1 0x10F01A01 x 8 00 00 FF FF FF FF FF FF 
11:49:12:4530 Rx 1 0x18FEF117 x 8 F7 FF FF FF FF FF FF FF 
11:49:12:4540 Rx 1 0x18FF2017 x 8 00 00 00 00 00 00 00 00 
11:49:12:4540 Rx 1 0x14FEF121 x 8 F7 FF FF CF FF FF FF FF 
11:49:12:4550 Rx 1 0x18F00E3D x 8 88 90 FF FF FF FF FF FF 
11:49:12:4560 Rx 1 0xCF00400 x 8 08 7D 7D 00 00 00 FC 7D 
11:49:12:4560 Rx 1 0x18F00F3D x 8 88 90 FF FF FF FF FF FF 
11:49:12:4570 Rx 1 0xCF00203 x 8 CC 00 00 0B FF 00 00 03 
11:49:12:4570 Rx 1 0x18FEF000 x 8 FF FF FF 00 00 FC 00 FF 
11:49:12:4580 Rx 1 0x18FEF34A x 8 5D C7 78 9A 24 55 E0 33 
11:49:12:4580 Rx 1 0x18FEE84A x 8 E0 04 00 00 FF FF BA 4E 
11:49:12:4640 Rx 1 0x10FF2121 x 8 32 00 0F C0 C0 FF FF 7D 
11:49:12:4650 Rx 1 0x14FEF131 x 8 CF FF FF F3 00 FF FF 30 
11:49:12:4650 Rx 1 0xCF00400 x 8 08 7D 7D 00 00 00 FC 7D 
11:49:12:4660 Rx 1 0xCF00203 x 8 CC 00 00 0B FF 00 00 03 
11:49:12:4660 Rx 1 0x18FEE000 x 8 FC 7E 42 00 FC 7E 42 00 
11:49:12:4720 Rx 1 0x8FE6E0B x 8 00 00 00 00 00 00 00 00 
11:49:12:4740 Rx 1 0xCF00421 x 8 FF FF FF FF FF FF FF FF 
11:49:12:4750 Rx 1 0xCF00400 x 8 08 7D 7D 00 00 00 FC 7D 
11:49:12:4760 Rx 1 0xCF00203 x 8 CC 00 00 0B FF 00 00 03 
11:49:12:4760 Rx 1 0xCF00300 x 8 D1 00 00 FF FF FF 00 FF 
11:49:12:4770 Rx 1 0x18FEF100 x 8 C7 00 00 00 00 00 00 30 
11:49:12:4840 Rx 1 0x14FDA421 x 8 FF FF FF FF FF FF FF FF 
11:49:12:4850 Rx 1 0xCF00400 x 8 08 7D 7D 00 00 00 FC 7D 
11:49:12:4860 Rx 1 0x18FEBF0B x 8 00 00 7D 7D 7D 7D FF FF 
11:49:12:4860 Rx 1 0xCF00203 x 8 CC 00 00 0B FF 00 00 03 
11:49:12:4870 Rx 1 0x18FEDF00 x 8 7D 00 13 FF 7D 00 00 FF 
11:49:12:4870 Rx 1 0x18FE4A03 x 8 FF CD 00 FF C0 F3 FA FF 
11:49:12:4880 Rx 1 0x18F00503 x 8 7D 00 00 7D 4E 20 4E 20 
11:49:12:4920 Rx 1 0x18F0233D x 8 FF FF FF FF FF 0C FF FF 
11:49:12:4920 Rx 1 0x8FE6E0B x 8 00 00 00 00 00 00 00 00 
11:49:12:4940 Rx 1 0x14FEF031 x 8 FF FF FF FF FF FC 00 FF 
11:49:12:4950 Rx 1 0xCF00400 x 8 08 7D 7D 00 00 00 FC 7D 
11:49:12:4960 Rx 1 0xCF00203 x 8 CC 00 00 0B FF 00 00 03 
11:49:12:4960 Rx 1 0x18FE4F3E x 8 CF FF FF FF FF FF FF FF 
11:49:12:4970 Rx 1 0x18F00100 x 8 FF FF FF FF 00 FF FF FF 
11:49:12:5010 Rx 1 0xCF00A01 x 8 00 00 00 00 FF FF FF FF 
11:49:12:5010 Rx 1 0x18F0010B x 8 00 00 D0 FF FF 0D FF FF 
11:49:12:5020 Rx 1 0x10F01A01 x 8 00 00 FF FF FF FF FF FF 
11:49:12:5020 Rx 1 0x10FCFD01 x 8 FF FF FF FF 00 00 FF FF 
11:49:12:5030 Rx 1 0x18FD9401 x 8 20 42 FF FF 00 00 20 03 
11:49:12:5040 Rx 1 0x18FDA101 x 8 00 04 FF FF FF FF 00 FF 
11:49:12:5040 Rx 1 0x10FDA301 x 8 FF FF FF FF FF FF FF FF 
11:49:12:5050 Rx 1 0x18FDAA01 x 8 FF FF FF FF FF FF FF 33 
11:49:12:5050 Rx 1 0x18FDD001 x 8 FF FF FF 00 33 FF FF FF 
11:49:12:5060 Rx 1 0xCF00400 x 8 08 7D 7D 00 00 00 FC 7D 
11:49:12:5070 Rx 1 0x18FDC40B x 8 1F 00 FF FF FF FF FF FF 
11:49:12:5070 Rx 1 0xCF00203 x 8 CC 00 00 0B FF 00 00 03 
11:49:12:5080 Rx 1 0x1CFE9201 x 8 FF 00 71 FF FF FF FF FF 
11:49:12:5080 Rx 1 0x18F0000F x 8 00 7D FF FF 0F 7D FF FF 
11:49:12:5090 Rx 1 0x18FEDB01 x 8 B9 00 B9 00 B9 00 FF FF 
11:49:12:5090 Rx 1 0x18F00E3D x 8 88 90 FF FF FF FF FF FF 
11:49:12:5100 Rx 1 0x18F00F3D x 8 88 90 FF FF FF FF FF FF 
11:49:12:5110 Rx 1 0x18FD8C3D x 8 00 00 04 00 FF FF FF FF 
11:49:12:5110 Rx 1 0x18FDB23D x 8 FF FF 13 24 00 00 FF FF 
11:49:12:5120 Rx 1 0x8FE6E0B x 8 00 00 00 00 00 00 00 00 
11:49:12:5120 Rx 1 0x18FDB300 x 8 FF FF 51 24 FF FF FF FF 
11:49:12:5130 Rx 1 0x10FF2121 x 8 32 00 0F C0 C0 FF FF 7D 
11:49:12:5130 Rx 1 0x18FDB400 x 8 51 24 51 24 FF FF FF FF 
11:49:12:5140 Rx 1 0x14FF3131 x 8 00 30 03 00 00 FF FF F0 
11:49:12:5150 Rx 1 0xCF00400 x 8 08 7D 7D 00 00 00 FC 7D 
11:49:12:5160 Rx 1 0xCF00203 x 8 CC 00 00 0B FF 00 00 03 
11:49:12:5160 Rx 1 0x18FF3000 x 8 00 00 FF FF FF FF FF FF 
11:49:12:5230 Rx 1 0x14FF2321 x 8 F4 5D E1 FF FF FF FF FF 
11:49:12:5240 Rx 1 0x18FF1919 x 8 01 03 00 00 FF FF FF FF 
11:49:12:5250 Rx 1 0xCF00400 x 8 08 7D 7D 00 00 00 FC 7D 
11:49:12:5260 Rx 1 0xCF00203 x 8 CC 00 00 0B FF 00 00 03 
11:49:12:5260 Rx 1 0xCF00300 x 8 D1 00 00 FF FF FF 00 FF 
11:49:12:5270 Rx 1 0x14FFA000 x 8 FC FF FF FF FF FF FF FF 
11:49:12:5270 Rx 1 0x18FEF200 x 8 00 00 00 00 D1 05 FF FF 
11:49:12:5290 Rx 1 0x18FF1B19 x 8 FF FC FF FF FF FF FF FF 
11:49:12:5300 Rx 1 0xC000003 x 8 FB FF FA E1 FF F0 FF FF 
11:49:12:5320 Rx 1 0x8FE6E0B x 8 00 00 00 00 00 00 00 00 
11:49:12:5330 Rx 1 0x14FF0121 x 8 FF FF FF FF FF FF FC FF 
11:49:12:5340 Rx 1 0x14F00031 x 8 CF FF FF FF FF FF FF FF 
11:49:12:5350 Rx 1 0x18E00019 x 8 00 FF FF FF FF FF FF FF 
11:49:12:5350 Rx 1 0xCF00400 x 8 08 7D 7D 00 00 00 FC 7D 
11:49:12:5360 Rx 1 0xCF00203 x 8 CC 00 00 0B FF 00 00 03 
11:49:12:5360 Rx 1 0x18FEDF00 x 8 7D 00 13 FF 7D 00 00 FF 
11:49:12:5390 Rx 1 0x18FEF719 x 8 FF FF FF FF FF FF F8 00 
11:49:12:5420 Rx 1 0x18F0233D x 8 FF FF FF FF FF 0C FF FF 
11:49:12:5420 Rx 1 0x18FD413D x 8 FF FF FF FF FC FC FC FC 
11:49:12:5430 Rx 1 0x14FF0221 x 8 FF FF FF FF FF FF FF FF 
11:49:12:5440 Rx 1 0x14F00131 x 8 FF FF FF FF 00 FF FF FF 
11:49:12:5450 Rx 1 0xCF00400 x 8 08 7D 7D 00 00 00 FC 7D 
11:49:12:5460 Rx 1 0xCF00203 x 8 CC 00 00 0B FF 00 00 03 
11:49:12:5510 Rx 1 0xCF00A01 x 8 00 00 00 00 FF FF FF FF 
11:49:12:5520 Rx 1 0x8FE6E0B x 8 00 00 00 00 00 00 00 00 
11:49:12:5520 Rx 1 0x10F01A01 x 8 00 00 FF FF FF FF FF FF 
11:49:12:5530 Rx 1 0x18FEF117 x 8 F7 FF FF FF FF FF FF FF 
11:49:12:5540 Rx 1 0x18FF2017 x 8 00 00 00 00 00 00 00 00 
11:49:12:5540 Rx 1 0x14FEF121 x 8 F7 FF FF CF FF FF FF FF 
11:49:12:5550 Rx 1 0x18F00E3D x 8 88 90 FF FF FF FF FF FF 
11:49:12:5550 Rx 1 0xCF00400 x 8 08 7D 7D 00 00 00 FC 7D 
11:49:12:5560 Rx 1 0x18F00F3D x 8 88 90 FF FF FF FF FF FF 
11:49:12:5560 Rx 1 0xCF00203 x 8 CC 00 00 0B FF 00 00 03 
11:49:12:5570 Rx 1 0x18FEF000 x 8 FF FF FF 00 00 FC 00 FF 
11:49:12:5630 Rx 1 0x10FF2121 x 8 32 00 0F C0 C0 FF FF 7D 
11:49:12:5640 Rx 1 0x14FEF131 x 8 CF FF FF F3 00 FF FF 30 
11:49:12:5650 Rx 1 0xCF00400 x 8 08 7D 7D 00 00 00 FC 7D 
11:49:12:5660 Rx 1 0xCF00203 x 8 CC 00 00 0B FF 00 00 03 
11:49:12:5660 Rx 1 0x18FEE000 x 8 FC 7E 42 00 FC 7E 42 00 
11:49:12:5670 Rx 1 0x18FECA00 x 8 03 FF 00 00 00 00 FF FF 
11:49:12:5720 Rx 1 0x8FE6E0B x 8 00 00 00 00 00 00 00 00 
11:49:12:5740 Rx 1 0xCF00421 x 8 FF FF FF FF FF FF FF FF 
11:49:12:5750 Rx 1 0xCF00400 x 8 08 7D 7D 00 00 00 FC 7D 
11:49:12:5760 Rx 1 0xCF00203 x 8 CC 00 00 0B FF 00 00 03 
11:49:12:5770 Rx 1 0xCF00300 x 8 D1 00 00 FF FF FF 00 FF 
11:49:12:5770 Rx 1 0x18FEF100 x 8 C7 00 00 00 00 00 00 30 
11:49:12:5780 Rx 1 0x18FDE000 x 8 FF FF FF FF A0 23 FF FF 
11:49:12:5780 Rx 1 0x1CFEAB03 x 8 7D 82 7D FF FF FF FF FF 
11:49:12:5840 Rx 1 0x14FDA421 x 8 FF FF FF FF FF FF FF FF 
11:49:12:5850 Rx 1 0xCF00400 x 8 08 7D 7D 00 00 00 FC 7D 
11:49:12:5860 Rx 1 0x18FEBF0B x 8 00 00 7D 7D 7D 7D FF FF 
11:49:12:5860 Rx 1 0xCF00203 x 8 CC 00 00 0B FF 00 00 03 
11:49:12:5870 Rx 1 0x18FEDF00 x 8 7D 00 13 FF 7D 00 00 FF 
11:49:12:5870 Rx 1 0x18FE4A03 x 8 FF CD 00 FF C0 F3 FA FF 
11:49:12:5880 Rx 1 0x18F00503 x 8 7D 00 00 7D 4E 20 4E 20 
11:49:12:5890 Rx 1 0x18FEEF00 x 8 19 FF FF 00 FF FF FF FA 
11:49:12:5920 Rx 1 0x18F0233D x 8 FF FF FF FF FF 0C FF FF 
11:49:12:5920 Rx 1 0x8FE6E0B x 8 00 00 00 00 00 00 00 00 
11:49:12:5940 Rx 1 0x14FEF031 x 8 FF FF FF FF FF FC 00 FF 
11:49:12:5950 Rx 1 0xCF00400 x 8 08 7D 7D 00 00 00 FC 7D 
11:49:12:5960 Rx 1 0xCF00203 x 8 CC 00 00 0B FF 00 00 03 
11:49:12:5960 Rx 1 0x18FE4F3E x 8 CF FF FF FF FF FF FF FF 
11:49:12:5970 Rx 1 0x18F00100 x 8 FF FF FF FF 00 FF FF FF 
11:49:12:5970 Rx 1 0x18FCDC00 x 8 E0 FE FE FF FF FF FF FF 
11:49:12:6010 Rx 1 0xCF00A01 x 8 00 00 00 00 FF FF FF FF 
11:49:12:6010 Rx 1 0x18F0010B x 8 00 00 D0 FF FF 0D FF FF 
11:49:12:6020 Rx 1 0x10F01A01 x 8 00 00 FF FF FF FF FF FF 
11:49:12:6020 Rx 1 0x10FCFD01 x 8 FF FF FF FF 00 00 FF FF 
11:49:12:6030 Rx 1 0x18FD9401 x 8 20 42 FF FF 00 00 20 03 
11:49:12:6040 Rx 1 0x18FDA101 x 8 00 04 FF FF FF FF 00 FF 
11:49:12:6040 Rx 1 0x10FDA301 x 8 FF FF FF FF FF FF FF FF 
11:49:12:6050 Rx 1 0x18FDAA01 x 8 FF FF FF FF FF FF FF 33 
11:49:12:6050 Rx 1 0x18FDD001 x 8 FF FF FF 00 33 FF FF FF 
11:49:12:6060 Rx 1 0xCF00400 x 8 08 7D 7D 00 00 00 FC 7D 
11:49:12:6070 Rx 1 0x18FDC40B x 8 1F 00 FF FF FF FF FF FF 
11:49:12:6070 Rx 1 0xCF00203 x 8 CC 00 00 0B FF 00 00 03 
11:49:12:6080 Rx 1 0x1CFE9201 x 8 FF 00 71 FF FF FF FF FF 
11:49:12:6080 Rx 1 0x18F0000F x 8 00 7D FF FF 0F 7D FF FF 
11:49:12:6090 Rx 1 0x18FEDB01 x 8 B9 00 B9 00 B9 00 FF FF 
11:49:12:6090 Rx 1 0x18F00E3D x 8 88 90 FF FF FF FF FF FF 
11:49:12:6100 Rx 1 0x18F00F3D x 8 88 90 FF FF FF FF FF FF 
11:49:12:6110 Rx 1 0x18FD8C3D x 8 00 00 04 00 FF FF FF FF 
11:49:12:6110 Rx 1 0x18FDB23D x 8 FF FF 13 24 00 00 FF FF 
11:49:12:6120 Rx 1 0x8FE6E0B x 8 00 00 00 00 00 00 00 00 
11:49:12:6120 Rx 1 0x18FDB300 x 8 FF FF 51 24 FF FF FF FF 
11:49:12:6130 Rx 1 0x18FDB400 x 8 51 24 51 24 FF FF FF FF 
11:49:12:6140 Rx 1 0x10FF2121 x 8 32 00 0F C0 C0 FF FF 7D 
11:49:12:6140 Rx 1 0x14FF3131 x 8 00 30 03 00 00 FF FF F0 
11:49:12:6150 Rx 1 0xCF00400 x 8 08 7D 7D 00 00 00 FC 7D 
11:49:12:6160 Rx 1 0xCF00203 x 8 CC 00 00 0B FF 00 00 03 
11:49:12:6160 Rx 1 0x18FF3000 x 8 00 00 FF FF FF FF FF FF 
11:49:12:6230 Rx 1 0x14FF2321 x 8 F4 5D E1 FF FF FF FF FF 
11:49:12:6250 Rx 1 0xCF00400 x 8 08 7D 7D 00 00 00 FC 7D 
11:49:12:6260 Rx 1 0xCF00203 x 8 CC 00 00 0B FF 00 00 03 
11:49:12:6260 Rx 1 0xCF00300 x 8 D1 00 00 FF FF FF 00 FF 
11:49:12:6270 Rx 1 0x14FFA000 x 8 FC FF FF FF FF FF FF FF 
11:49:12:6270 Rx 1 0x18FEF200 x 8 00 00 00 00 D1 05 FF FF 
11:49:12:6280 Rx 1 0x18FEF500 x 8 CC FF FF FF FF 37 FF FF 
11:49:12:6290 Rx 1 0xC000003 x 8 FB FF FA E1 FF F0 FF FF 
11:49:12:6320 Rx 1 0x8FE6E0B x 8 00 00 00 00 00 00 00 00 
11:49:12:6330 Rx 1 0x14FF0121 x 8 FF FF FF FF FF FF FC FF 
11:49:12:6350 Rx 1 0xCF00400 x 8 08 7D 7D 00 00 00 FC 7D 
11:49:12:6360 Rx 1 0x14F00031 x 8 CF FF FF FF FF FF FF FF 
11:49:12:6360 Rx 1 0xCF00203 x 8 CC 00 00 0B FF 00 00 03 
11:49:12:6370 Rx 1 0x18FEDF00 x 8 7D 00 13 FF 7D 00 00 FF 
11:49:12:6420 Rx 1 0x18F0233D x 8 FF FF FF FF FF 0C FF FF 
11:49:12:6420 Rx 1 0x18FD413D x 8 FF FF FF FF FC FC FC FC 
11:49:12:6430 Rx 1 0x14FF0221 x 8 FF FF FF FF FF FF FF FF 
11:49:12:6450 Rx 1 0x14F00131 x 8 FF FF FF FF 00 FF FF FF 
11:49:12:6460 Rx 1 0xCF00400 x 8 08 7D 7D 00 00 00 FC 7D 
11:49:12:6460 Rx 1 0xCF00203 x 8 CC 00 00 0B FF 00 00 03 
11:49:12:6470 Rx 1 0x18FEEE00 x 8 34 34 A0 23 FF FF 37 FF 
11:49:12:6510 Rx 1 0xCF00A01 x 8 00 00 00 00 FF FF FF FF 
11:49:12:6520 Rx 1 0x8FE6E0B x 8 00 00 00 00 00 00 00 00 
11:49:12:6520 Rx 1 0x10F01A01 x 8 00 00 FF FF FF FF FF FF 
11:49:12:6540 Rx 1 0x18FEF117 x 8 F7 FF FF FF FF FF FF FF 
11:49:12:6540 Rx 1 0x18FF2017 x 8 00 00 00 00 00 00 00 00 
11:49:12:6550 Rx 1 0x18F00E3D x 8 88 90 FF FF FF FF FF FF 
11:49:12:6550 Rx 1 0xCF00400 x 8 08 7D 7D 00 00 00 FC 7D 
11:49:12:6560 Rx 1 0x14FEF121 x 8 F7 FF FF CF FF FF FF FF 
11:49:12:6570 Rx 1 0xCF00203 x 8 CC 00 00 0B FF 00 00 03 
11:49:12:6570 Rx 1 0x18F00F3D x 8 88 90 FF FF FF FF FF FF 
11:49:12:6580 Rx 1 0x18FEF000 x 8 FF FF FF 00 00 FC 00 FF 
11:49:12:6580 Rx 1 0x18FEA400 x 8 FF FF FF FF 2D 7D 20 22 
11:49:12:6590 Rx 1 0x18FECA03 x 8 03 FF 00 00 00 00 FF FF 
11:49:12:6630 Rx 1 0x10FF2121 x 8 32 00 0F C0 C0 FF FF 7D 
11:49:12:6650 Rx 1 0x14FEF131 x 8 CF FF FF F3 00 FF FF 30 
11:49:12:6660 Rx 1 0xCF00400 x 8 08 7D 7D 00 00 00 FC 7D 
11:49:12:6660 Rx 1 0xCF00203 x 8 CC 00 00 0B FF 00 00 03 
11:49:12:6670 Rx 1 0x14FD3E00 x 8 10 24 FF 10 24 FF FF FF 
11:49:12:6670 Rx 1 0x18FEE000 x 8 FC 7E 42 00 FC 7E 42 00 
11:49:12:6720 Rx 1 0x8FE6E0B x 8 00 00 00 00 00 00 00 00 
11:49:12:6750 Rx 1 0xCF00421 x 8 FF FF FF FF FF FF FF FF 
11:49:12:6760 Rx 1 0xCF00400 x 8 08 7D 7D 00 00 00 FC 7D 
11:49:12:6760 Rx 1 0xCF00203 x 8 CC 00 00 0B FF 00 00 03 
11:49:12:6770 Rx 1 0xCF00300 x 8 D1 00 00 FF FF FF 00 FF 
11:49:12:6770 Rx 1 0x18FEF100 x 8 C7 00 00 00 00 00 00 30 
11:49:12:6780 Rx 1 0x18FEBD00 x 8 00 F0 00 00 FF FF FF FF 
11:49:12:6790 Rx 1 0x18FD0700 x 8 43 00 00 3F FC FF FF FF 
11:49:12:6850 Rx 1 0xCF00400 x 8 08 7D 7D 00 00 00 FC 7D 
11:49:12:6860 Rx 1 0x14FDA421 x 8 FF FF FF FF FF FF FF FF 
11:49:12:6860 Rx 1 0xCF00203 x 8 CC 00 00 0B FF 00 00 03 
11:49:12:6870 Rx 1 0x18FEBF0B x 8 00 00 7D 7D 7D 7D FF FF 
11:49:12:6870 Rx 1 0x18FEDF00 x 8 7D 00 13 FF 7D 00 00 FF 
11:49:12:6880 Rx 1 0x18FE4A03 x 8 FF CD 00 FF C0 F3 FA FF 
11:49:12:6890 Rx 1 0x18F00503 x 8 7D 00 00 7D 4E 20 4E 20 
11:49:12:6890 Rx 1 0x18FF7400 x 8 D3 00 FF FF FF FC FF FF 
11:49:12:6920 Rx 1 0x18F0233D x 8 FF FF FF FF FF 0C FF FF 
11:49:12:6920 Rx 1 0x8FE6E0B x 8 00 00 00 00 00 00 00 00 
11:49:12:6950 Rx 1 0xCF00400 x 8 08 7D 7D 00 00 00 FC 7D 
11:49:12:6960 Rx 1 0x14FEF031 x 8 FF FF FF FF FF FC 00 FF 
11:49:12:6960 Rx 1 0xCF00203 x 8 CC 00 00 0B FF 00 00 03 
11:49:12:6970 Rx 1 0x18FE4F3E x 8 CF FF FF FF FF FF FF FF 
11:49:12:6970 Rx 1 0x18F00100 x 8 FF FF FF FF 00 FF FF FF 
11:49:12:6980 Rx 1 0x18FD7C00 x 8 F8 F3 C0 34 30 FF E3 FF 
11:49:12:7010 Rx 1 0xCF00A01 x 8 00 00 00 00 FF FF FF FF 
11:49:12:7010 Rx 1 0x18F0010B x 8 00 00 D0 FF FF 0D FF FF 
11:49:12:7020 Rx 1 0x10F01A01 x 8 00 00 FF FF FF FF FF FF 
11:49:12:7030 Rx 1 0x10FCFD01 x 8 FF FF FF FF 00 00 FF FF 
11:49:12:7030 Rx 1 0x18FD9401 x 8 20 42 FF FF 00 00 20 03 
11:49:12:7040 Rx 1 0x18FDA101 x 8 00 04 FF FF FF FF 00 FF 
11:49:12:7040 Rx 1 0x10FDA301 x 8 FF FF FF FF FF FF FF FF 
11:49:12:7050 Rx 1 0x18FDAA01 x 8 FF FF FF FF FF FF FF 33 
11:49:12:7050 Rx 1 0x18FDD001 x 8 FF FF FF 00 33 FF FF FF 
11:49:12:7060 Rx 1 0xCF00400 x 8 08 7D 7D 00 00 00 FC 7D 
11:49:12:7070 Rx 1 0x18FDC40B x 8 1F 00 FF FF FF FF FF FF 
11:49:12:7070 Rx 1 0xCF00203 x 8 CC 00 00 0B FF 00 00 03 
11:49:12:7080 Rx 1 0x1CFE9201 x 8 FF 00 71 FF FF FF FF FF 
11:49:12:7080 Rx 1 0x18F0000F x 8 00 7D FF FF 0F 7D FF FF 
11:49:12:7090 Rx 1 0x18FEDB01 x 8 B9 00 B9 00 B9 00 FF FF 
11:49:12:7100 Rx 1 0x18FEF600 x 8 FF 00 37 33 FF 50 24 FF 
11:49:12:7100 Rx 1 0x18F00E3D x 8 88 90 FF FF FF FF FF FF 
11:49:12:7110 Rx 1 0x18FEE400 x 8 00 7F FF FC 00 7F FF FF 
11:49:12:7110 Rx 1 0x18F00F3D x 8 88 90 FF FF FF FF FF FF 
11:49:12:7120 Rx 1 0x18FD8C3D x 8 00 00 04 00 FF FF FF FF 
11:49:12:7120 Rx 1 0x8FE6E0B x 8 00 00 00 00 00 00 00 00 
11:49:12:7130 Rx 1 0x10FF2121 x 8 32 00 0F C0 C0 FF FF 7D 
11:49:12:7140 Rx 1 0x18FDB23D x 8 FF FF 13 24 00 00 FF FF 
11:49:12:7140 Rx 1 0x14FF3131 x 8 00 30 03 00 00 FF FF F0 
11:49:12:7150 Rx 1 0x18FDB300 x 8 FF FF 51 24 FF FF FF FF 
11:49:12:7150 Rx 1 0xCF00400 x 8 08 7D 7D 00 00 00 FC 7D 
11:49:12:7160 Rx 1 0x18FDB400 x 8 51 24 51 24 FF FF FF FF 
11:49:12:7160 Rx 1 0xCF00203 x 8 CC 00 00 0B FF 00 00 03 
11:49:12:7170 Rx 1 0x18FF3000 x 8 00 00 FF FF FF FF FF FF 
11:49:12:7230 Rx 1 0x14FF2321 x 8 F4 5D E1 FF FF FF FF FF 
11:49:12:7250 Rx 1 0xCF00400 x 8 08 7D 7D 00 00 00 FC 7D 
11:49:12:7260 Rx 1 0xCF00203 x 8 CC 00 00 0B FF 00 00 03 
11:49:12:7260 Rx 1 0xCF00300 x 8 D1 00 00 FF FF FF 00 FF 
11:49:12:7270 Rx 1 0x14FFA000 x 8 FC FF FF FF FF FF FF FF 
11:49:12:7270 Rx 1 0x18FEF200 x 8 00 00 00 00 D1 05 FF FF 
11:49:12:7290 Rx 1 0xC000003 x 8 FB FF FA E1 FF F0 FF FF 
11:49:12:7320 Rx 1 0x8FE6E0B x 8 00 00 00 00 00 00 00 00 
11:49:12:7330 Rx 1 0x14FF0121 x 8 FF FF FF FF FF FF FC FF 
11:49:12:7350 Rx 1 0xCF00400 x 8 08 7D 7D 00 00 00 FC 7D 
11:49:12:7360 Rx 1 0x14F00031 x 8 CF FF FF FF FF FF FF FF 
11:49:12:7360 Rx 1 0xCF00203 x 8 CC 00 00 0B FF 00 00 03 
11:49:12:7370 Rx 1 0x18FEDF00 x 8 7D 00 13 FF 7D 00 00 FF 
11:49:12:7370 Rx 1 0x18FE5600 x 8 52 35 FF FF 1F 1F 00 FF 
11:49:12:7420 Rx 1 0x18F0233D x 8 FF FF FF FF FF 0C FF FF 
11:49:12:7420 Rx 1 0x18FD413D x 8 FF FF FF FF FC FC FC FC 
11:49:12:7430 Rx 1 0x14FF0221 x 8 FF FF FF FF FF FF FF FF 
11:49:12:7450 Rx 1 0x14F00131 x 8 FF FF FF FF 00 FF FF FF 
11:49:12:7460 Rx 1 0xCF00400 x 8 08 7D 7D 00 00 00 FC 7D 
11:49:12:7460 Rx 1 0xCF00203 x 8 CC 00 00 0B FF 00 00 03 
11:49:12:7470 Rx 1 0x18FEC100 x 8 97 66 7E 06 97 66 7E 06 
11:49:12:7510 Rx 1 0xCF00A01 x 8 00 00 00 00 FF FF FF FF 
11:49:12:7520 Rx 1 0x8FE6E0B x 8 00 00 00 00 00 00 00 00 
11:49:12:7530 Rx 1 0x10F01A01 x 8 00 00 FF FF FF FF FF FF 
11:49:12:7540 Rx 1 0x18FEF117 x 8 F7 FF FF FF FF FF FF FF 
11:49:12:7540 Rx 1 0x18FF2017 x 8 00 00 00 00 00 00 00 00 
11:49:12:7550 Rx 1 0x18F00E3D x 8 88 90 FF FF FF FF FF FF 
11:49:12:7560 Rx 1 0xCF00400 x 8 08 7D 7D 00 00 00 FC 7D 
11:49:12:7560 Rx 1 0x14FEF121 x 8 F7 FF FF CF FF FF FF FF 
11:49:12:7570 Rx 1 0xCF00203 x 8 CC 00 00 0B FF 00 00 03 
11:49:12:7570 Rx 1 0x18F00F3D x 8 88 90 FF FF FF FF FF FF 
11:49:12:7580 Rx 1 0x18FEF000 x 8 FF FF FF 00 00 FC 00 FF 
11:49:12:7590 Rx 1 0x18FEF700 x 8 FF FF FF FF F9 00 F9 00 
11:49:12:7630 Rx 1 0x10FF2121 x 8 32 00 0F C0 C0 FF FF 7D 
11:49:12:7650 Rx 1 0xCF00400 x 8 08 7D 7D 00 00 00 FC 7D 
11:49:12:7660 Rx 1 0x14FEF131 x 8 CF FF FF F3 00 FF FF 30 
11:49:12:7660 Rx 1 0xCF00203 x 8 CC 00 00 0B FF 00 00 03 
11:49:12:7670 Rx 1 0x18FEE000 x 8 FC 7E 42 00 FC 7E 42 00 
11:49:12:7670 Rx 1 0x18FEF803 x 8 FF FF FF FF B6 23 FF FF 
11:49:12:7720 Rx 1 0x8FE6E0B x 8 00 00 00 00 00 00 00 00 
11:49:12:7750 Rx 1 0xCF00421 x 8 FF FF FF FF FF FF FF FF 
11:49:12:7760 Rx 1 0xCF00400 x 8 08 7D 7D 00 00 00 FC 7D 
11:49:12:7760 Rx 1 0xCF00203 x 8 CC 00 00 0B FF 00 00 03 
11:49:12:7770 Rx 1 0xCF00300 x 8 D1 00 00 FF FF FF 00 FF 
11:49:12:7770 Rx 1 0x18FEF100 x 8 C7 00 00 00 00 00 00 30 
11:49:12:7850 Rx 1 0x14FDA421 x 8 FF FF FF FF FF FF FF FF 
11:49:12:7860 Rx 1 0xCF00400 x 8 08 7D 7D 00 00 00 FC 7D 
11:49:12:7860 Rx 1 0x18FEBF0B x 8 00 00 7D 7D 7D 7D FF FF 
11:49:12:7870 Rx 1 0xCF00203 x 8 CC 00 00 0B FF 00 00 03 
11:49:12:7870 Rx 1 0x18FEDF00 x 8 7D 00 13 FF 7D 00 00 FF 
11:49:12:7880 Rx 1 0x18FE4A03 x 8 FF CD 00 FF C0 F3 FA FF 
11:49:12:7890 Rx 1 0x18F00503 x 8 7D 00 00 7D 4E 20 4E 20 
11:49:12:7920 Rx 1 0x18F0233D x 8 FF FF FF FF FF 0C FF FF 
11:49:12:7920 Rx 1 0x8FE6E0B x 8 00 00 00 00 00 00 00 00 
11:49:12:7950 Rx 1 0xCF00400 x 8 08 7D 7D 00 00 00 FC 7D 
11:49:12:7960 Rx 1 0x14FEF031 x 8 FF FF FF FF FF FC 00 FF 
11:49:12:7960 Rx 1 0xCF00203 x 8 CC 00 00 0B FF 00 00 03 
11:49:12:7970 Rx 1 0x18FE4F3E x 8 CF FF FF FF FF FF FF FF 
11:49:12:7970 Rx 1 0x18F00100 x 8 FF FF FF FF 00 FF FF FF 
11:49:12:8010 Rx 1 0xCF00A01 x 8 00 00 00 00 FF FF FF FF 
11:49:12:8010 Rx 1 0x18F0010B x 8 00 00 D0 FF FF 0D FF FF 
11:49:12:8020 Rx 1 0x10F01A01 x 8 00 00 FF FF FF FF FF FF 
11:49:12:8030 Rx 1 0x18FECA01 x 8 03 FF 00 00 00 00 FF FF 
11:49:12:8030 Rx 1 0x10FCFD01 x 8 FF FF FF FF 00 00 FF FF 
11:49:12:8040 Rx 1 0x18FD9401 x 8 20 42 FF FF 00 00 20 03 
11:49:12:8040 Rx 1 0x18FDA101 x 8 00 04 FF FF FF FF 00 FF 
11:49:12:8050 Rx 1 0x10FDA301 x 8 FF FF FF FF FF FF FF FF 
11:49:12:8050 Rx 1 0x18FDAA01 x 8 FF FF FF FF FF FF FF 33 
11:49:12:8060 Rx 1 0xCF00400 x 8 08 7D 7D 00 00 00 FC 7D 
11:49:12:8070 Rx 1 0x18FDD001 x 8 FF FF FF 00 33 FF FF FF 
11:49:12:8070 Rx 1 0xCF00203 x 8 CC 00 00 0B FF 00 00 03 
11:49:12:8080 Rx 1 0x18FDC40B x 8 1F 00 FF FF FF FF FF FF 
11:49:12:8080 Rx 1 0x18F0000F x 8 00 7D FF FF 0F 7D FF FF 
11:49:12:8090 Rx 1 0x1CFE9201 x 8 FF 00 71 FF FF FF FF FF 
11:49:12:8100 Rx 1 0x18FEDB01 x 8 B9 00 B9 00 B9 00 FF FF 
11:49:12:8100 Rx 1 0x18F00E3D x 8 88 90 FF FF FF FF FF FF 
11:49:12:8110 Rx 1 0x18F00F3D x 8 88 90 FF FF FF FF FF FF 
11:49:12:8110 Rx 1 0x18FECA3D x 8 43 FF 00 00 00 00 FF FF 
11:49:12:8120 Rx 1 0x18FD6501 x 8 05 02 FF FF FF FF FF FF 
11:49:12:8120 Rx 1 0x8FE6E0B x 8 00 00 00 00 00 00 00 00 
11:49:12:8130 Rx 1 0x10FF2121 x 8 32 00 0F C0 C0 FF FF 7D 
11:49:12:8140 Rx 1 0x18FD8C3D x 8 00 00 04 00 FF FF FF FF 
11:49:12:8140 Rx 1 0x14FF3131 x 8 00 30 03 00 00 FF FF F0 
11:49:12:8150 Rx 1 0x18FDB23D x 8 FF FF 13 24 00 00 FF FF 
11:49:12:8150 Rx 1 0x18FD6601 x 8 FF 33 FF FF FF FF FF FF 
11:49:12:8160 Rx 1 0x18FDB300 x 8 FF FF 51 24 FF FF FF FF 
11:49:12:8160 Rx 1 0xCF00400 x 8 08 7D 7D 00 00 00 FC 7D 
11:49:12:8170 Rx 1 0x18FDB400 x 8 51 24 51 24 FF FF FF FF 
11:49:12:8180 Rx 1 0xCF00203 x 8 CC 00 00 0B FF 00 00 03 
11:49:12:8180 Rx 1 0x18FE6901 x 8 F3 23 96 23 FF FF CB 23 
11:49:12:8190 Rx 1 0x18FECA0B x 8 00 FF 00 00 00 00 FF FF 
11:49:12:8190 Rx 1 0x18FF3000 x 8 00 00 FF FF FF FF FF FF 
11:49:12:8200 Rx 1 0x18FFA63D x 8 00 FF 00 00 00 00 FF FF 
11:49:12:8210 Rx 1 0x18FE9701 x 8 FF FF FF FF FF FF FF FF 
11:49:12:8210 Rx 1 0x18FE9801 x 8 20 22 FF FF FF FF FF FF 
11:49:12:8220 Rx 1 0x18FE9901 x 8 00 7D FF FF FF FF FF FF 
11:49:12:8220 Rx 1 0x18FE9A01 x 8 08 24 FF FF FF FF FF FF 
11:49:12:8230 Rx 1 0x14FF2321 x 8 F4 5D E1 FF FF FF FF FF 
11:49:12:8240 Rx 1 0x18FEDD01 x 8 FF 00 00 FF FF FF FF FF 
11:49:12:8240 Rx 1 0x18FFAA01 x 8 00 00 67 06 71 7D 70 70 
11:49:12:8250 Rx 1 0x18FFAB01 x 8 BD 17 08 00 7D 00 68 10 
11:49:12:8250 Rx 1 0xCF00400 x 8 08 7D 7D 00 00 00 FC 7D 
11:49:12:8260 Rx 1 0x18FFAC01 x 8 00 00 00 19 0C 00 F0 FF 
11:49:12:8260 Rx 1 0xCF00203 x 8 CC 00 00 0B FF 00 00 03 
11:49:12:8270 Rx 1 0x18FFAD01 x 8 69 00 FF FF FF FF FF FF 
11:49:12:8280 Rx 1 0xCF00300 x 8 D1 00 00 FF FF FF 00 FF 
11:49:12:8280 Rx 1 0x18FFAE01 x 8 00 FF 00 00 00 00 FF FF 
11:49:12:8290 Rx 1 0x14FFA000 x 8 FC FF FF FF FF FF FF FF 
11:49:12:8290 Rx 1 0xC000003 x 8 FB FF FA E1 FF F0 FF FF 
11:49:12:8300 Rx 1 0x18FEF200 x 8 00 00 00 00 D1 05 FF FF 
11:49:12:8320 Rx 1 0x8FE6E0B x 8 00 00 00 00 00 00 00 00 
11:49:12:8330 Rx 1 0x18FD9B3D x 8 FF FF FF FF FF FF FF FF 
11:49:12:8330 Rx 1 0x14FF0121 x 8 FF FF FF FF FF FF FC FF 
11:49:12:8350 Rx 1 0x14F00031 x 8 CF FF FF FF FF FF FF FF 
11:49:12:8360 Rx 1 0xCF00400 x 8 08 7D 7D 00 00 00 FC 7D 
11:49:12:8360 Rx 1 0x18E00021 x 8 FF FF FF FF FF FF FF FF 
11:49:12:8370 Rx 1 0xCF00203 x 8 CC 00 00 0B FF 00 00 03 
11:49:12:8370 Rx 1 0x18FEDF00 x 8 7D 00 13 FF 7D 00 00 FF 
11:49:12:8420 Rx 1 0x18F0233D x 8 FF FF FF FF FF 0C FF FF 
11:49:12:8420 Rx 1 0x18FD413D x 8 FF FF FF FF FC FC FC FC 
11:49:12:8430 Rx 1 0x14FF0221 x 8 FF FF FF FF FF FF FF FF 
11:49:12:8450 Rx 1 0x14F00131 x 8 FF FF FF FF 00 FF FF FF 
11:49:12:8460 Rx 1 0xCF00400 x 8 08 7D 7D 00 00 00 FC 7D 
11:49:12:8460 Rx 1 0xCF00203 x 8 CC 00 00 0B FF 00 00 03 
11:49:12:8510 Rx 1 0xCF00A01 x 8 00 00 00 00 FF FF FF FF 
11:49:12:8520 Rx 1 0x8FE6E0B x 8 00 00 00 00 00 00 00 00 
11:49:12:8530 Rx 1 0x10F01A01 x 8 00 00 FF FF FF FF FF FF 
11:49:12:8530 Rx 1 0x18EA4A17 x 3 E6 FE 00 
11:49:12:8530 Rx 1 0x18FD0517 x 8 43 03 3F FF FF FF FF FF 
11:49:12:8540 Rx 1 0x18FD0417 x 8 D0 FF FF FF FF FF FF FF 
11:49:12:8550 Rx 1 0x18FEE64A x 8 30 31 13 0B 64 23 FF F9 
11:49:12:8550 Rx 1 0x10FECA47 x 8 00 FF 00 00 00 00 FF FF 
11:49:12:8560 Rx 1 0xCF00400 x 8 08 7D 7D 00 00 00 FC 7D 
11:49:12:8560 Rx 1 0x14FEF121 x 8 F7 FF FF CF FF FF FF FF 
11:49:12:8570 Rx 1 0xCF00203 x 8 CC 00 00 0B FF 00 00 03 
11:49:12:8570 Rx 1 0x18FEF717 x 8 FF FF FF FF FB 00 FF FF 
11:49:12:8580 Rx 1 0x18FEF000 x 8 FF FF FF 00 00 FC 00 FF 
11:49:12:8590 Rx 1 0x18FEFA17 x 8 FF FE FE FF FF FF FF FF 
11:49:12:8590 Rx 1 0x18FF1817 x 8 01 00 00 40 00 00 FE FF 
11:49:12:8600 Rx 1 0x18FF1917 x 8 31 FF FF FF 40 00 00 E1 
11:49:12:8600 Rx 1 0x18FECA17 x 8 00 FF 00 00 00 00 FF FF 
11:49:12:8610 Rx 1 0x18FEFC17 x 8 FF 64 FF FF FF FF FF FF 
11:49:12:8620 Rx 1 0x18FEF117 x 8 F7 FF FF FF FF FF FF FF 
11:49:12:8620 Rx 1 0x18EA4A17 x 3 E8 FE 00 
11:49:12:8630 Rx 1 0x18FF2017 x 8 00 00 00 00 00 00 00 00 
11:49:12:8630 Rx 1 0x10FF2121 x 8 32 00 0F C0 C0 FF FF 7D 
11:49:12:8640 Rx 1 0x18FEC117 x 8 96 66 7E 06 FF FF FF FF 
11:49:12:8640 Rx 1 0x18FEE84A x 8 E0 04 00 00 FF FF BA 4E 
11:49:12:8650 Rx 1 0x18FFA53D x 8 00 0A 39 1B 11 24 11 24 
11:49:12:8650 Rx 1 0x10FECA31 x 8 00 FF 00 00 00 00 FF FF 
11:49:12:8660 Rx 1 0xCF00400 x 8 08 7D 7D 00 00 00 FC 7D 
11:49:12:8670 Rx 1 0x14FEF131 x 8 CF FF FF F3 00 FF FF 30 
11:49:12:8670 Rx 1 0xCF00203 x 8 CC 00 00 0B FF 00 00 03 
11:49:12:8680 Rx 1 0x18F00E3D x 8 88 90 FF FF FF FF FF FF 
11:49:12:8680 Rx 1 0x18FEE000 x 8 FC 7E 42 00 FC 7E 42 00 
11:49:12:8690 Rx 1 0x18F00F3D x 8 88 90 FF FF FF FF FF FF 
11:49:12:8720 Rx 1 0x8FE6E0B x 8 00 00 00 00 00 00 00 00 
11:49:12:8750 Rx 1 0xCF00421 x 8 FF FF FF FF FF FF FF FF 
11:49:12:8760 Rx 1 0xCF00400 x 8 08 7D 7D 00 00 00 FC 7D 
11:49:12:8760 Rx 1 0x10FECA21 x 8 00 FF 00 00 00 00 FF FF 
11:49:12:8770 Rx 1 0xCF00203 x 8 CC 00 00 0B FF 00 00 03 
11:49:12:8770 Rx 1 0xCF00300 x 8 D1 00 00 FF FF FF 00 FF 
11:49:12:8780 Rx 1 0x18FEF100 x 8 C7 00 00 00 00 00 00 30 
11:49:12:8850 Rx 1 0x14FDA421 x 8 FF FF FF FF FF FF FF FF 
11:49:12:8860 Rx 1 0xCF00400 x 8 08 7D 7D 00 00 00 FC 7D 
11:49:12:8860 Rx 1 0x18FEBF0B x 8 00 00 7D 7D 7D 7D FF FF 
11:49:12:8870 Rx 1 0xCF00203 x 8 CC 00 00 0B FF 00 00 03 
11:49:12:8870 Rx 1 0x1CFEC347 x 8 FF FF FF FF FF FF FF FF 
11:49:12:8880 Rx 1 0x18FEDF00 x 8 7D 00 13 FF 7D 00 00 FF 
11:49:12:8890 Rx 1 0x18FE4A03 x 8 FF CD 00 FF C0 F3 FA FF 
11:49:12:8890 Rx 1 0x18F00503 x 8 7D 00 00 7D 4E 20 4E 20 
11:49:12:8920 Rx 1 0x18F0233D x 8 FF FF FF FF FF 0C FF FF 
11:49:12:8920 Rx 1 0x8FE6E0B x 8 00 00 00 00 00 00 00 00 
11:49:12:8950 Rx 1 0x14FEF031 x 8 FF FF FF FF FF FC 00 FF 
11:49:12:8960 Rx 1 0xCF00400 x 8 08 7D 7D 00 00 00 FC 7D 
11:49:12:8960 Rx 1 0x18FE4F3E x 8 CF FF FF FF FF FF FF FF 
11:49:12:8970 Rx 1 0xCF00203 x 8 CC 00 00 0B FF 00 00 03 
11:49:12:8970 Rx 1 0x18F00100 x 8 FF FF FF FF 00 FF FF FF 
11:49:12:9010 Rx 1 0xCF00A01 x 8 00 00 00 00 FF FF FF FF 
11:49:12:9010 Rx 1 0x18F0010B x 8 00 00 D0 FF FF 0D FF FF 
11:49:12:9020 Rx 1 0x10F01A01 x 8 00 00 FF FF FF FF FF FF 
11:49:12:9030 Rx 1 0x10FCFD01 x 8 FF FF FF FF 00 00 FF FF 
11:49:12:9030 Rx 1 0x18FD9401 x 8 20 42 FF FF 00 00 20 03 
11:49:12:9040 Rx 1 0x18FDA101 x 8 00 04 FF FF FF FF 00 FF 
11:49:12:9040 Rx 1 0x18FD3C3D x 8 00 00 FF FF FF FC FF FF 
11:49:12:9050 Rx 1 0x10FDA301 x 8 FF FF FF FF FF FF FF FF 
11:49:12:9060 Rx 1 0x18FF2421 x 8 83 F0 FF FF FF FF FF FF 
11:49:12:9060 Rx 1 0x18FDAA01 x 8 FF FF FF FF FF FF FF 33 
11:49:12:9070 Rx 1 0xCF00400 x 8 08 7D 7D 00 00 00 FC 7D 
11:49:12:9070 Rx 1 0x18FDC40B x 8 1F 00 FF FF FF FF FF FF 
11:49:12:9080 Rx 1 0xCF00203 x 8 CC 00 00 0B FF 00 00 03 
11:49:12:9080 Rx 1 0x18FDD001 x 8 FF FF FF 00 33 FF FF FF 
11:49:12:9090 Rx 1 0x18F0000F x 8 00 7D FF FF 0F 7D FF FF 
11:49:12:9100 Rx 1 0x1CFE9201 x 8 FF 00 71 FF FF FF FF FF 
11:49:12:9100 Rx 1 0x18FEDB01 x 8 B9 00 B9 00 B9 00 FF FF 
11:49:12:9110 Rx 1 0x18F00E3D x 8 88 90 FF FF FF FF FF FF 
11:49:12:9110 Rx 1 0x18F00F3D x 8 88 90 FF FF FF FF FF FF 
11:49:12:9120 Rx 1 0x18FD8C3D x 8 00 00 04 00 FF FF FF FF 
11:49:12:9130 Rx 1 0x8FE6E0B x 8 00 00 00 00 00 00 00 00 
11:49:12:9130 Rx 1 0x18FDB23D x 8 FF FF 13 24 00 00 FF FF 
11:49:12:9140 Rx 1 0x18FDB300 x 8 FF FF 51 24 FF FF FF FF 
11:49:12:9140 Rx 1 0x10FF2121 x 8 32 00 0F C0 C0 FF FF 7D 
11:49:12:9150 Rx 1 0x18FDB400 x 8 51 24 51 24 FF FF FF FF 
11:49:12:9150 Rx 1 0xCF00400 x 8 08 7D 7D 00 00 00 FC 7D 
11:49:12:9160 Rx 1 0x14FF3131 x 8 00 30 03 00 00 FF FF F0 
11:49:12:9170 Rx 1 0xCF00203 x 8 CC 00 00 0B FF 00 00 03 
11:49:12:9170 Rx 1 0x10FECA25 x 8 00 FF 00 00 00 00 FF FF 
11:49:12:9180 Rx 1 0x18FF3000 x 8 00 00 FF FF FF FF FF FF 
11:49:12:9190 Rx 1 0x18EAFF80 x 3 70 FE 00 
11:49:12:9220 Rx 1 0x18EAFF80 x 3 49 FC 00 
11:49:12:9220 Rx 1 0x18FFA33D x 8 00 00 EF 05 80 10 FF FF 
11:49:12:9230 Rx 1 0x14FF2321 x 8 F4 5D E1 FF FF FF FF FF 
11:49:12:9240 Rx 1 0x18EAFF80 x 3 A0 FC 00 
11:49:12:9250 Rx 1 0x18FEF521 x 8 FF FF FF A0 23 FF FF FF 
11:49:12:9260 Rx 1 0xCF00400 x 8 08 7D 7D 00 00 00 FC 7D 
11:49:12:9260 Rx 1 0x18EAFF80 x 3 48 FC 00 
11:49:12:9270 Rx 1 0xCF00203 x 8 CC 00 00 0B FF 00 00 03 
11:49:12:9270 Rx 1 0xCF00300 x 8 D1 00 00 FF FF FF 00 FF 
11:49:12:9280 Rx 1 0x18FE700B x 8 FF FF FF FF FF FF FF FF 
11:49:12:9280 Rx 1 0x14FFA000 x 8 FC FF FF FF FF FF FF FF 
11:49:12:9290 Rx 1 0x18EAFF80 x 3 79 FD 00 
11:49:12:9290 Rx 1 0xC000003 x 8 FB FF FA E1 FF F0 FF FF 
11:49:12:9300 Rx 1 0x18FEF200 x 8 00 00 00 00 D1 05 FF FF 
11:49:12:9310 Rx 1 0x18EAFF80 x 3 78 FD 00 
11:49:12:9320 Rx 1 0x8FE6E0B x 8 00 00 00 00 00 00 00 00 
11:49:12:9320 Rx 1 0x18EAFF80 x 3 98 FD 00 
11:49:12:9330 Rx 1 0x18FFA43D x 8 D6 06 D6 06 00 00 FC FF 
11:49:12:9340 Rx 1 0x14FF0121 x 8 FF FF FF FF FF FF FC FF 
11:49:12:9340 Rx 1 0x18EAFF80 x 3 99 FD 00 
11:49:12:9350 Rx 1 0x14F00031 x 8 CF FF FF FF FF FF FF FF 
11:49:12:9360 Rx 1 0xCF00400 x 8 08 7D 7D 00 00 00 FC 7D 
11:49:12:9360 Rx 1 0xCF00203 x 8 CC 00 00 0B FF 00 00 03 
11:49:12:9370 Rx 1 0x18FEDF00 x 8 7D 00 13 FF 7D 00 00 FF 
11:49:12:9390 Rx 1 0x18EAFF80 x 3 E8 FB 00 
11:49:12:9410 Rx 1 0x18EAFF80 x 3 E6 FE 00 
11:49:12:9420 Rx 1 0x18FEE64A x 8 30 31 13 0B 64 23 FF F9 
11:49:12:9420 Rx 1 0x18F0233D x 8 FF FF FF FF FF 0C FF FF 
11:49:12:9430 Rx 1 0x18FD413D x 8 FF FF FF FF FC FC FC FC 
11:49:12:9430 Rx 1 0x14FF0221 x 8 FF FF FF FF FF FF FF FF 
11:49:12:9440 Rx 1 0x18EAFF80 x 3 CF FE 00 
11:49:12:9440 Rx 1 0x18FFA23D x 8 00 00 D9 0C E8 03 49 0D 
11:49:12:9450 Rx 1 0x14F00131 x 8 FF FF FF FF 00 FF FF FF 
11:49:12:9460 Rx 1 0xCF00400 x 8 08 7D 7D 00 00 00 FC 7D 
11:49:12:9460 Rx 1 0xCF00203 x 8 CC 00 00 0B FF 00 00 03 
11:49:12:9510 Rx 1 0xCF00A01 x 8 00 00 00 00 FF FF FF FF 
11:49:12:9520 Rx 1 0x10F01A01 x 8 00 00 FF FF FF FF FF FF 
11:49:12:9530 Rx 1 0x8FE6E0B x 8 00 00 00 00 00 00 00 00 
11:49:12:9530 Rx 1 0x18FEF117 x 8 F7 FF FF FF FF FF FF FF 
11:49:12:9540 Rx 1 0x18FF2017 x 8 00 00 00 00 00 00 00 00 
11:49:12:9540 Rx 1 0x18FFA03D x 8 1A 0B 1A 00 18 00 1A FF 
11:49:12:9550 Rx 1 0x18F00E3D x 8 88 90 FF FF FF FF FF FF 
11:49:12:9550 Rx 1 0xCF00400 x 8 08 7D 7D 00 00 00 FC 7D 
11:49:12:9560 Rx 1 0x14FEF121 x 8 F7 FF FF CF FF FF FF FF 
11:49:12:9570 Rx 1 0xCF00203 x 8 CC 00 00 0B FF 00 00 03 
11:49:12:9570 Rx 1 0x18F00F3D x 8 88 90 FF FF FF FF FF FF 
11:49:12:9580 Rx 1 0x18FEF000 x 8 FF FF FF 00 00 FC 00 FF 
11:49:12:9580 Rx 1 0x18FEF34A x 8 5D C7 78 9A 24 55 E0 33 
11:49:12:9590 Rx 1 0x18FEE84A x 8 E0 04 00 00 FF FF BA 4E 
11:49:12:9590 Rx 1 0x18FEF74A x 8 FF FF FF FF F7 00 FF FF 
11:49:12:9600 Rx 1 0x18FECA4A x 8 FF FF 00 00 00 00 FF FF 
11:49:12:9610 Rx 1 0x18FFA94A x 8 1D E0 00 F0 F3 FF FF FF 
11:49:12:9620 Rx 1 0x18FFA13D x 8 3E 02 3F 02 1A 00 00 00 
11:49:12:9630 Rx 1 0x10FF2121 x 8 32 00 0F C0 C0 FF FF 7D 
11:49:12:9650 Rx 1 0x14FEF131 x 8 CF FF FF F3 00 FF FF 30 
11:49:12:9660 Rx 1 0xCF00400 x 8 08 7D 7D 00 00 00 FC 7D 
11:49:12:9660 Rx 1 0xCF00203 x 8 CC 00 00 0B FF 00 00 03 
11:49:12:9670 Rx 1 0x18FEE000 x 8 FC 7E 42 00 FC 7E 42 00 
11:49:12:9720 Rx 1 0x8FE6E0B x 8 00 00 00 00 00 00 00 00 
11:49:12:9750 Rx 1 0xCF00421 x 8 FF FF FF FF FF FF FF FF 
11:49:12:9760 Rx 1 0xCF00400 x 8 08 7D 7D 00 00 00 FC 7D 
11:49:12:9760 Rx 1 0xCF00203 x 8 CC 00 00 0B FF 00 00 03 
11:49:12:9770 Rx 1 0xCF00300 x 8 D1 00 00 FF FF FF 00 FF 
11:49:12:9770 Rx 1 0x18FEF100 x 8 C7 00 00 00 00 00 00 30 
11:49:12:9850 Rx 1 0x14FDA421 x 8 FF FF FF FF FF FF FF FF 
11:49:12:9860 Rx 1 0xCF00400 x 8 08 7D 7D 00 00 00 FC 7D 
11:49:12:9860 Rx 1 0x18FEBF0B x 8 00 00 7D 7D 7D 7D FF FF 
11:49:12:9870 Rx 1 0x1CECFF00 x 8 20 28 00 06 FF 98 FD 00 
11:49:12:9870 Rx 1 0xCF00203 x 8 CC 00 00 0B FF 00 00 03 
11:49:12:9880 Rx 1 0x18FEDF00 x 8 7D 00 13 FF 7D 00 00 FF 
11:49:12:9890 Rx 1 0x18FE4A03 x 8 FF CD 00 FF C0 F3 FA FF 
11:49:12:9890 Rx 1 0x18F00503 x 8 7D 00 00 7D 4E 20 4E 20 
11:49:12:9920 Rx 1 0x18F0233D x 8 FF FF FF FF FF 0C FF FF 
11:49:12:9920 Rx 1 0x8FE6E0B x 8 00 00 00 00 00 00 00 00 
11:49:12:9950 Rx 1 0x14FEF031 x 8 FF FF FF FF FF FC 00 FF 
11:49:12:9960 Rx 1 0xCF00400 x 8 08 7D 7D 00 00 00 FC 7D 
11:49:12:9960 Rx 1 0x18FE4F3E x 8 CF FF FF FF FF FF FF FF 
11:49:12:9970 Rx 1 0xCF00203 x 8 CC 00 00 0B FF 00 00 03 
11:49:12:9970 Rx 1 0x18F00100 x 8 FF FF FF FF 00 FF FF FF 
11:49:13:0010 Rx 1 0xCF00A01 x 8 00 00 00 00 FF FF FF FF 
11:49:13:0010 Rx 1 0x18F0010B x 8 00 00 D0 FF FF 0D FF FF 
11:49:13:0020 Rx 1 0x10F01A01 x 8 00 00 FF FF FF FF FF FF 
11:49:13:0030 Rx 1 0x10FCFD01 x 8 FF FF FF FF 00 00 FF FF 
11:49:13:0030 Rx 1 0x18FD9401 x 8 20 42 FF FF 00 00 20 03 
11:49:13:0040 Rx 1 0x18FDA101 x 8 00 04 FF FF FF FF 00 FF 
11:49:13:0040 Rx 1 0x10FDA301 x 8 FF FF FF FF FF FF FF FF 
11:49:13:0050 Rx 1 0x18FDAA01 x 8 FF FF FF FF FF FF FF 33 
11:49:13:0060 Rx 1 0x18FEF621 x 8 FF FF FF FF FF FF FF FF 
11:49:13:0060 Rx 1 0x18FDD001 x 8 FF FF FF 00 33 FF FF FF 
11:49:13:0070 Rx 1 0xCF00400 x 8 08 7D 7D 00 00 00 FC 7D 
11:49:13:0070 Rx 1 0x18FDC40B x 8 1F 00 FF FF FF FF FF FF 
11:49:13:0080 Rx 1 0xCF00203 x 8 CC 00 00 0B FF 00 00 03 
11:49:13:0080 Rx 1 0x1CFE9201 x 8 FF 00 71 FF FF FF FF FF 
11:49:13:0090 Rx 1 0x18F0000F x 8 00 7D FF FF 0F 7D FF FF 
11:49:13:0100 Rx 1 0x18FEDB01 x 8 89 00 89 00 89 00 FF FF 
11:49:13:0100 Rx 1 0x18F00E3D x 8 88 90 FF FF FF FF FF FF 
11:49:13:0110 Rx 1 0x18F00F3D x 8 88 90 FF FF FF FF FF FF 
11:49:13:0110 Rx 1 0x18FD8C3D x 8 00 00 04 00 FF FF FF FF 
11:49:13:0120 Rx 1 0x18FDB23D x 8 FF FF 13 24 00 00 FF FF 
11:49:13:0130 Rx 1 0x8FE6E0B x 8 00 00 00 00 00 00 00 00 
11:49:13:0130 Rx 1 0x10FF2121 x 8 32 00 0F C0 C0 FF FF 7D 
11:49:13:0140 Rx 1 0x18FDB300 x 8 FF FF 51 24 FF FF FF FF 
11:49:13:0140 Rx 1 0x14FF3131 x 8 00 30 03 00 00 FF FF F0 
11:49:13:0150 Rx 1 0x18FDB400 x 8 51 24 51 24 FF FF FF FF 
11:49:13:0150 Rx 1 0xCF00400 x 8 08 7D 7D 00 00 00 FC 7D 
11:49:13:0160 Rx 1 0x18FEF721 x 8 FF FF FF FF F8 00 FF FF 
11:49:13:0170 Rx 1 0xCF00203 x 8 CC 00 00 0B FF 00 00 03 
11:49:13:0170 Rx 1 0x18FF3000 x 8 00 00 FF FF FF FF FF FF 
11:49:13:0180 Rx 1 0x18FEE600 x 8 20 2B 13 0B 64 23 FF F9 
11:49:13:0230 Rx 1 0x14FF2321 x 8 F4 5D E1 FF FF FF FF FF 
11:49:13:0240 Rx 1 0x18FF1919 x 8 01 03 00 00 FF FF FF FF 
11:49:13:0250 Rx 1 0x18FECF3D x 8 43 FF 00 00 00 00 FF FF 
11:49:13:0250 Rx 1 0xCF00400 x 8 08 7D 7D 00 00 00 FC 7D 
11:49:13:0260 Rx 1 0x18E00031 x 8 FF FF FF FF FF F3 FF FF 
11:49:13:0260 Rx 1 0xCF00203 x 8 CC 00 00 0B FF 00 00 03 
11:49:13:0270 Rx 1 0xCF00300 x 8 D1 00 00 FF FF FF 00 FF 
11:49:13:0280 Rx 1 0x14FFA000 x 8 FC FF FF FF FF FF FF FF 
11:49:13:0280 Rx 1 0x18FEF200 x 8 00 00 00 00 D1 05 FF FF 
11:49:13:0290 Rx 1 0xC000003 x 8 FB FF FA E1 FF F0 FF FF 
11:49:13:0300 Rx 1 0x18FF1B19 x 8 FF FC FF FF FF FF FF FF 
11:49:13:0310 Rx 1 0x18FECF01 x 8 03 FF 00 00 00 00 FF FF 
11:49:13:0320 Rx 1 0x8FE6E0B x 8 00 00 00 00 00 00 00 00 
11:49:13:0340 Rx 1 0x14FF0121 x 8 FF FF FF FF FF FF FC FF 
11:49:13:0350 Rx 1 0xCF00400 x 8 08 7D 7D 00 00 00 FC 7D 
11:49:13:0360 Rx 1 0x14F00031 x 8 CF FF FF FF FF FF FF FF 
11:49:13:0360 Rx 1 0x1CEBFF00 x 8 01 FF FF FF FF 77 52 02 
11:49:13:0370 Rx 1 0xCF00203 x 8 CC 00 00 0B FF 00 00 03 
11:49:13:0370 Rx 1 0x18FEDF00 x 8 7D 00 13 FF 7D 00 00 FF 
11:49:13:0420 Rx 1 0x18F0233D x 8 FF FF FF FF FF 0C FF FF 
11:49:13:0420 Rx 1 0x18FD413D x 8 FF FF FF FF FC FC FC FC 
11:49:13:0430 Rx 1 0x14FF0221 x 8 FF FF FF FF FF FF FF FF 
11:49:13:0450 Rx 1 0x14F00131 x 8 FF FF FF FF 00 FF FF FF 
11:49:13:0460 Rx 1 0xCF00400 x 8 08 7D 7D 00 00 00 FC 7D 
11:49:13:0460 Rx 1 0xCF00203 x 8 CC 00 00 0B FF 00 00 03 
11:49:13:0510 Rx 1 0xCF00A01 x 8 00 00 00 00 FF FF FF FF 
11:49:13:0520 Rx 1 0x10F01A01 x 8 00 00 FF FF FF FF FF FF 
11:49:13:0530 Rx 1 0x8FE6E0B x 8 00 00 00 00 00 00 00 00 
11:49:13:0530 Rx 1 0x18FEF117 x 8 F7 FF FF FF FF FF FF FF 
11:49:13:0540 Rx 1 0x18FF2017 x 8 00 00 00 00 00 00 00 00 
11:49:13:0550 Rx 1 0x18F00E3D x 8 88 90 FF FF FF FF FF FF 
11:49:13:0550 Rx 1 0xCF00400 x 8 08 7D 7D 00 00 00 FC 7D 
11:49:13:0560 Rx 1 0x14FEF121 x 8 F7 FF FF CF FF FF FF FF 
11:49:13:0560 Rx 1 0xCF00203 x 8 CC 00 00 0B FF 00 00 03 
11:49:13:0570 Rx 1 0x18F00F3D x 8 88 90 FF FF FF FF FF FF 
11:49:13:0580 Rx 1 0x18FEF000 x 8 FF FF FF 00 00 FC 00 FF 
11:49:13:0630 Rx 1 0x10FF2121 x 8 32 00 0F C0 C0 FF FF 7D 
11:49:13:0650 Rx 1 0xCF00400 x 8 08 7D 7D 00 00 00 FC 7D 
11:49:13:0660 Rx 1 0x14FEF131 x 8 CF FF FF F3 00 FF FF 30 
11:49:13:0660 Rx 1 0xCF00203 x 8 CC 00 00 0B FF 00 00 03 
11:49:13:0670 Rx 1 0x18FEE000 x 8 FC 7E 42 00 FC 7E 42 00 
11:49:13:0720 Rx 1 0x8FE6E0B x 8 00 00 00 00 00 00 00 00 
11:49:13:0750 Rx 1 0xCF00421 x 8 FF FF FF FF FF FF FF FF 
11:49:13:0760 Rx 1 0xCF00400 x 8 08 7D 7D 00 00 00 FC 7D 
11:49:13:0760 Rx 1 0xCF00203 x 8 CC 00 00 0B FF 00 00 03 
11:49:13:0770 Rx 1 0xCF00300 x 8 D1 00 00 FF FF FF 00 FF 
11:49:13:0770 Rx 1 0x18FEF100 x 8 C7 00 00 00 00 00 00 30 
11:49:13:0850 Rx 1 0xCF00400 x 8 08 7D 7D 00 00 00 FC 7D 
11:49:13:0860 Rx 1 0x14FDA421 x 8 FF FF FF FF FF FF FF FF 
11:49:13:0860 Rx 1 0x18FEBF0B x 8 00 00 7D 7D 7D 7D FF FF 
11:49:13:0870 Rx 1 0x1CEBFF00 x 8 02 00 FF FF FF FF FF FF 
11:49:13:0870 Rx 1 0xCF00203 x 8 CC 00 00 0B FF 00 00 03 
11:49:13:0880 Rx 1 0x18FEDF00 x 8 7D 00 13 FF 7D 00 00 FF 
11:49:13:0890 Rx 1 0x18FE4A03 x 8 FF CD 00 FF C0 F3 FA FF 
11:49:13:0890 Rx 1 0x18F00503 x 8 7D 00 00 7D 4E 20 4E 20 
11:49:13:0900 Rx 1 0x18FEEF00 x 8 19 FF FF 00 FF FF FF FA 
11:49:13:0920 Rx 1 0x18F0233D x 8 FF FF FF FF FF 0C FF FF 
11:49:13:0920 Rx 1 0x8FE6E0B x 8 00 00 00 00 00 00 00 00 
11:49:13:0950 Rx 1 0xCF00400 x 8 08 7D 7D 00 00 00 FC 7D 
11:49:13:0960 Rx 1 0x14FEF031 x 8 FF FF FF FF FF FC 00 FF 
11:49:13:0960 Rx 1 0xCF00203 x 8 CC 00 00 0B FF 00 00 03 
11:49:13:0970 Rx 1 0x18FE4F3E x 8 CF FF FF FF FF FF FF FF 
11:49:13:0970 Rx 1 0x18F00100 x 8 FF FF FF FF 00 FF FF FF 
11:49:13:1010 Rx 1 0xCF00A01 x 8 00 00 00 00 FF FF FF FF 
11:49:13:1010 Rx 1 0x18F0010B x 8 00 00 D0 FF FF 0D FF FF 
11:49:13:1020 Rx 1 0x10F01A01 x 8 00 00 FF FF FF FF FF FF 
11:49:13:1030 Rx 1 0x10FCFD01 x 8 FF FF FF FF 00 00 FF FF 
11:49:13:1030 Rx 1 0x18FD9401 x 8 20 42 FF FF 00 00 20 03 
11:49:13:1040 Rx 1 0x18FDA101 x 8 00 04 FF FF FF FF 00 FF 
11:49:13:1050 Rx 1 0x10FDA301 x 8 FF FF FF FF FF FF FF FF 
11:49:13:1050 Rx 1 0x18FDAA01 x 8 FF FF FF FF FF FF FF 33 
11:49:13:1060 Rx 1 0x18FDD001 x 8 FF FF FF 00 33 FF FF FF 
11:49:13:1060 Rx 1 0xCF00400 x 8 08 7D 7D 00 00 00 FC 7D 
11:49:13:1070 Rx 1 0x18FDC40B x 8 1F 00 FF FF FF FF FF FF 
11:49:13:1070 Rx 1 0xCF00203 x 8 CC 00 00 0B FF 00 00 03 
11:49:13:1080 Rx 1 0x1CFE9201 x 8 FF 00 71 FF FF FF FF FF 
11:49:13:1090 Rx 1 0x18F0000F x 8 00 7D FF FF 0F 7D FF FF 
11:49:13:1090 Rx 1 0x18FEDB01 x 8 89 00 89 00 89 00 FF FF 
11:49:13:1100 Rx 1 0x18F00E3D x 8 88 90 FF FF FF FF FF FF 
11:49:13:1100 Rx 1 0x18F00F3D x 8 88 90 FF FF FF FF FF FF 
11:49:13:1110 Rx 1 0x18FD8C3D x 8 00 00 04 00 FF FF FF FF 
11:49:13:1110 Rx 1 0x18FDB23D x 8 FF FF 13 24 00 00 FF FF 
11:49:13:1120 Rx 1 0x18FDB300 x 8 FF FF 51 24 FF FF FF FF 
11:49:13:1130 Rx 1 0x8FE6E0B x 8 00 00 00 00 00 00 00 00 
11:49:13:1130 Rx 1 0x10FF2121 x 8 32 00 0F C0 C0 FF FF 7D 
11:49:13:1140 Rx 1 0x18FDB400 x 8 51 24 51 24 FF FF FF FF 
11:49:13:1150 Rx 1 0xCF00400 x 8 08 7D 7D 00 00 00 FC 7D 
11:49:13:1160 Rx 1 0xCF00203 x 8 CC 00 00 0B FF 00 00 03 
11:49:13:1160 Rx 1 0x18FF3000 x 8 00 00 FF FF FF FF FF FF 
11:49:13:1170 Rx 1 0x14FF3131 x 8 00 30 03 00 00 FF FF F0 
11:49:13:1230 Rx 1 0x14FF2321 x 8 F4 5D E1 FF FF FF FF FF 
11:49:13:1250 Rx 1 0xCF00400 x 8 08 7D 7D 00 00 00 FC 7D 
11:49:13:1260 Rx 1 0xCF00203 x 8 CC 00 00 0B FF 00 00 03 
11:49:13:1260 Rx 1 0xCF00300 x 8 D1 00 00 FF FF FF 00 FF 
11:49:13:1270 Rx 1 0x14FFA000 x 8 FC FF FF FF FF FF FF FF 
11:49:13:1270 Rx 1 0x18FEF200 x 8 00 00 00 00 D1 05 FF FF 
11:49:13:1290 Rx 1 0xC000003 x 8 FB FF FA E1 FF F0 FF FF 
11:49:13:1320 Rx 1 0x8FE6E0B x 8 00 00 00 00 00 00 00 00 
11:49:13:1330 Rx 1 0x14FF0121 x 8 FF FF FF FF FF FF FC FF 
11:49:13:1350 Rx 1 0xCF00400 x 8 08 7D 7D 00 00 00 FC 7D 
11:49:13:1360 Rx 1 0x14F00031 x 8 CF FF FF FF FF FF FF FF 
11:49:13:1360 Rx 1 0x1CEBFF00 x 8 03 FF FF FF FF FF FF FF 
11:49:13:1370 Rx 1 0xCF00203 x 8 CC 00 00 0B FF 00 00 03 
11:49:13:1370 Rx 1 0x18FEDF00 x 8 7D 00 13 FF 7D 00 00 FF 
11:49:13:1420 Rx 1 0x18F0233D x 8 FF FF FF FF FF 0C FF FF 
11:49:13:1420 Rx 1 0x18FD413D x 8 FF FF FF FF FC FC FC FC 
11:49:13:1430 Rx 1 0x14FF0221 x 8 FF FF FF FF FF FF FF FF 
11:49:13:1450 Rx 1 0x18A9FE31 x 8 FF FF FF FF FF FF FF FF 
11:49:13:1450 Rx 1 0xCF00400 x 8 08 7D 7D 00 00 00 FC 7D 
11:49:13:1460 Rx 1 0x14F00131 x 8 FF FF FF FF 00 FF FF FF 
11:49:13:1470 Rx 1 0xCF00203 x 8 CC 00 00 0B FF 00 00 03 
11:49:13:1510 Rx 1 0xCF00A01 x 8 00 00 00 00 FF FF FF FF 
11:49:13:1520 Rx 1 0x10F01A01 x 8 00 00 FF FF FF FF FF FF 
11:49:13:1530 Rx 1 0x8FE6E0B x 8 00 00 00 00 00 00 00 00 
11:49:13:1530 Rx 1 0x18FEF117 x 8 F7 FF FF FF FF FF FF FF 
11:49:13:1540 Rx 1 0x18FF2017 x 8 00 00 00 00 00 00 00 00 
11:49:13:1550 Rx 1 0x18F00E3D x 8 88 90 FF FF FF FF FF FF 
11:49:13:1550 Rx 1 0x18F00F3D x 8 88 90 FF FF FF FF FF FF 
11:49:13:1560 Rx 1 0xCF00400 x 8 08 7D 7D 00 00 00 FC 7D 
11:49:13:1560 Rx 1 0x14FEF121 x 8 F7 FF FF CF FF FF FF FF 
11:49:13:1570 Rx 1 0xCF00203 x 8 CC 00 00 0B FF 00 00 03 
11:49:13:1570 Rx 1 0x18FEF000 x 8 FF FF FF 00 00 FC 00 FF 
11:49:13:1630 Rx 1 0x10FF2121 x 8 32 00 0F C0 C0 FF FF 7D 
11:49:13:1650 Rx 1 0x18FF2221 x 8 03 00 CF 57 33 F7 FF FF 
11:49:13:1650 Rx 1 0xCF00400 x 8 08 7D 7D 00 00 00 FC 7D 
11:49:13:1660 Rx 1 0x14FEF131 x 8 CF FF FF F3 00 FF FF 30 
11:49:13:1670 Rx 1 0xCF00203 x 8 CC 00 00 0B FF 00 00 03 
11:49:13:1670 Rx 1 0x14FD3E00 x 8 10 24 FF 10 24 FF FF FF 
11:49:13:1680 Rx 1 0x18FEE000 x 8 FC 7E 42 00 FC 7E 42 00 
11:49:13:1720 Rx 1 0x8FE6E0B x 8 00 00 00 00 00 00 00 00 
11:49:13:1750 Rx 1 0xCF00421 x 8 FF FF FF FF FF FF FF FF 
11:49:13:1760 Rx 1 0xCF00400 x 8 08 7D 7D 00 00 00 FC 7D 
11:49:13:1760 Rx 1 0xCF00203 x 8 CC 00 00 0B FF 00 00 03 
11:49:13:1770 Rx 1 0xCF00300 x 8 D1 00 00 FF FF FF 00 FF 
11:49:13:1770 Rx 1 0x18FEF100 x 8 C7 00 00 00 00 00 00 30 
11:49:13:1850 Rx 1 0xCF00400 x 8 08 7D 7D 00 00 00 FC 7D 
11:49:13:1860 Rx 1 0x14FDA421 x 8 FF FF FF FF FF FF FF FF 
11:49:13:1860 Rx 1 0x18FEBF0B x 8 00 00 7D 7D 7D 7D FF FF 
11:49:13:1870 Rx 1 0x1CEBFF00 x 8 04 FF FF FF FF FF FF FF 
11:49:13:1870 Rx 1 0xCF00203 x 8 CC 00 00 0B FF 00 00 03 
11:49:13:1880 Rx 1 0x18FEDF00 x 8 7D 00 13 FF 7D 00 00 FF 
11:49:13:1890 Rx 1 0x18FE4A03 x 8 FF CD 00 FF C0 F3 FA FF 
11:49:13:1890 Rx 1 0x18F00503 x 8 7D 00 00 7D 4E 20 4E 20 
11:49:13:1920 Rx 1 0x18F0233D x 8 FF FF FF FF FF 0C FF FF 
11:49:13:1920 Rx 1 0x8FE6E0B x 8 00 00 00 00 00 00 00 00 
11:49:13:1950 Rx 1 0xCF00400 x 8 08 7D 7D 00 00 00 FC 7D 
11:49:13:1960 Rx 1 0x14FEF031 x 8 FF FF FF FF FF FC 00 FF 
11:49:13:1960 Rx 1 0xCF00203 x 8 CC 00 00 0B FF 00 00 03 
11:49:13:1970 Rx 1 0x18FE4F3E x 8 CF FF FF FF FF FF FF FF 
11:49:13:1970 Rx 1 0x18F00100 x 8 FF FF FF FF 00 FF FF FF 
11:49:13:2010 Rx 1 0xCF00A01 x 8 00 00 00 00 FF FF FF FF 
11:49:13:2020 Rx 1 0x18F0010B x 8 00 00 D0 FF FF 0D FF FF 
11:49:13:2020 Rx 1 0x10F01A01 x 8 00 00 FF FF FF FF FF FF 
11:49:13:2030 Rx 1 0x10FCFD01 x 8 FF FF FF FF 00 00 FF FF 
11:49:13:2030 Rx 1 0x18FD9401 x 8 20 42 FF FF 00 00 20 03 
11:49:13:2040 Rx 1 0x18FDA101 x 8 00 04 FF FF FF FF 00 FF 
11:49:13:2050 Rx 1 0x10FDA301 x 8 FF FF FF FF FF FF FF FF 
11:49:13:2050 Rx 1 0x18FDAA01 x 8 FF FF FF FF FF FF FF 33 
11:49:13:2060 Rx 1 0x18FDD001 x 8 FF FF FF 00 33 FF FF FF 
11:49:13:2060 Rx 1 0xCF00400 x 8 08 7D 7D 00 00 00 FC 7D 
11:49:13:2070 Rx 1 0x18FDC40B x 8 1F 00 FF FF FF FF FF FF 
11:49:13:2070 Rx 1 0xCF00203 x 8 CC 00 00 0B FF 00 00 03 
11:49:13:2080 Rx 1 0x1CFE9201 x 8 FF 00 71 FF FF FF FF FF 
11:49:13:2090 Rx 1 0x18F0000F x 8 00 7D FF FF 0F 7D FF FF 
11:49:13:2090 Rx 1 0x18FEDB01 x 8 89 00 89 00 89 00 FF FF 
11:49:13:2100 Rx 1 0x18FEF600 x 8 FF 00 37 33 FF 4C 24 FF 
11:49:13:2100 Rx 1 0x18F00E3D x 8 88 90 FF FF FF FF FF FF 
11:49:13:2110 Rx 1 0x18F00F3D x 8 88 90 FF FF FF FF FF FF 
11:49:13:2110 Rx 1 0x18FD8C3D x 8 00 00 04 00 FF FF FF FF 
11:49:13:2120 Rx 1 0x18FDB23D x 8 FF FF 13 24 00 00 FF FF 
11:49:13:2130 Rx 1 0x8FE6E0B x 8 00 00 00 00 00 00 00 00 
11:49:13:2130 Rx 1 0x18FDB300 x 8 FF FF 51 24 FF FF FF FF 
11:49:13:2140 Rx 1 0x10FF2121 x 8 32 00 0F C0 C0 FF FF 7D 
11:49:13:2140 Rx 1 0x18FDB400 x 8 51 24 51 24 FF FF FF FF 
11:49:13:2150 Rx 1 0x14FF3131 x 8 00 30 03 00 00 FF FF F0 
11:49:13:2160 Rx 1 0xCF00400 x 8 08 7D 7D 00 00 00 FC 7D 
11:49:13:2160 Rx 1 0xCF00203 x 8 CC 00 00 0B FF 00 00 03 
11:49:13:2170 Rx 1 0x18FF3000 x 8 00 00 FF FF FF FF FF FF 
11:49:13:2230 Rx 1 0x14FF2321 x 8 F4 5D E1 FF FF FF FF FF 
11:49:13:2250 Rx 1 0xCF00400 x 8 08 7D 7D 00 00 00 FC 7D 
11:49:13:2260 Rx 1 0xCF00203 x 8 CC 00 00 0B FF 00 00 03 
11:49:13:2260 Rx 1 0xCF00300 x 8 D1 00 00 FF FF FF 00 FF 
11:49:13:2270 Rx 1 0x14FFA000 x 8 FC FF FF FF FF FF FF FF 
11:49:13:2270 Rx 1 0x18FEF200 x 8 00 00 00 00 D1 05 FF FF 
11:49:13:2290 Rx 1 0xC000003 x 8 FB FF FA E1 FF F0 FF FF 
11:49:13:2320 Rx 1 0x8FE6E0B x 8 00 00 00 00 00 00 00 00 
11:49:13:2330 Rx 1 0x14FF0121 x 8 FF FF FF FF FF FF FC FF 
11:49:13:2350 Rx 1 0xCF00400 x 8 08 7D 7D 00 00 00 FC 7D 
11:49:13:2360 Rx 1 0x1CEBFF00 x 8 05 FF FF FF FF 5D 60 03 
11:49:13:2360 Rx 1 0xCF00203 x 8 CC 00 00 0B FF 00 00 03 
11:49:13:2370 Rx 1 0x14F00031 x 8 CF FF FF FF FF FF FF FF 
11:49:13:2370 Rx 1 0x18FEDF00 x 8 7D 00 13 FF 7D 00 00 FF 
11:49:13:2420 Rx 1 0x18F0233D x 8 FF FF FF FF FF 0C FF FF 
11:49:13:2420 Rx 1 0x18FD413D x 8 FF FF FF FF FC FC FC FC 
11:49:13:2430 Rx 1 0x14FF0221 x 8 FF FF FF FF FF FF FF FF 
11:49:13:2450 Rx 1 0xCF00400 x 8 08 7D 7D 00 00 00 FC 7D 
11:49:13:2460 Rx 1 0xCF00203 x 8 CC 00 00 0B FF 00 00 03 
11:49:13:2470 Rx 1 0x14F00131 x 8 FF FF FF FF 00 FF FF FF 
11:49:13:2510 Rx 1 0xCF00A01 x 8 00 00 00 00 FF FF FF FF 
11:49:13:2520 Rx 1 0x10F01A01 x 8 00 00 FF FF FF FF FF FF 
11:49:13:2530 Rx 1 0x8FE6E0B x 8 00 00 00 00 00 00 00 00 
11:49:13:2530 Rx 1 0x18FEF117 x 8 F7 FF FF FF FF FF FF FF 
11:49:13:2540 Rx 1 0x18FF2017 x 8 00 00 00 00 00 00 00 00 
11:49:13:2540 Rx 1 0x18F00E3D x 8 88 90 FF FF FF FF FF FF 
11:49:13:2550 Rx 1 0x18F00F3D x 8 88 90 FF FF FF FF FF FF 
11:49:13:2560 Rx 1 0xCF00400 x 8 08 7D 7D 00 00 00 FC 7D 
11:49:13:2560 Rx 1 0xCF00203 x 8 CC 00 00 0B FF 00 00 03 
11:49:13:2570 Rx 1 0x14FEF121 x 8 F7 FF FF CF FF FF FF FF 
11:49:13:2570 Rx 1 0x18FEF000 x 8 FF FF FF 00 00 FC 00 FF 
11:49:13:2630 Rx 1 0x10FF2121 x 8 32 00 0F C0 C0 FF FF 7D 
11:49:13:2650 Rx 1 0xCF00400 x 8 08 7D 7D 00 00 00 FC 7D 
11:49:13:2660 Rx 1 0xCF00203 x 8 CC 00 00 0B FF 00 00 03 
11:49:13:2660 Rx 1 0x18FEE000 x 8 FC 7E 42 00 FC 7E 42 00 
11:49:13:2670 Rx 1 0x14FEF131 x 8 CF FF FF F3 00 FF FF 30 
11:49:13:2720 Rx 1 0x8FE6E0B x 8 00 00 00 00 00 00 00 00 
11:49:13:2750 Rx 1 0xCF00400 x 8 08 7D 7D 00 00 00 FC 7D 
11:49:13:2760 Rx 1 0xCF00203 x 8 CC 00 00 0B FF 00 00 03 
11:49:13:2760 Rx 1 0xCF00300 x 8 D1 00 00 FF FF FF 00 FF 
11:49:13:2770 Rx 1 0xCF00421 x 8 FF FF FF FF FF FF FF FF 
11:49:13:2780 Rx 1 0x18FEF100 x 8 C7 00 00 00 00 00 00 30 
11:49:13:2850 Rx 1 0xCF00400 x 8 08 7D 7D 00 00 00 FC 7D 
11:49:13:2860 Rx 1 0x1CEBFF00 x 8 06 00 3C 02 00 00 FF FF 
11:49:13:2860 Rx 1 0x18FEBF0B x 8 00 00 7D 7D 7D 7D FF FF 
11:49:13:2870 Rx 1 0xCF00203 x 8 CC 00 00 0B FF 00 00 03 
11:49:13:2870 Rx 1 0x14FDA421 x 8 FF FF FF FF FF FF FF FF 
11:49:13:2880 Rx 1 0x18FEDF00 x 8 7D 00 13 FF 7D 00 00 FF 
11:49:13:2890 Rx 1 0x18FE4A03 x 8 FF CD 00 FF C0 F3 FA FF 
11:49:13:2890 Rx 1 0x18F00503 x 8 7D 00 00 7D 4E 20 4E 20 
11:49:13:2920 Rx 1 0x18F0233D x 8 FF FF FF FF FF 0C FF FF 
11:49:13:2920 Rx 1 0x8FE6E0B x 8 00 00 00 00 00 00 00 00 
11:49:13:2950 Rx 1 0xCF00400 x 8 08 7D 7D 00 00 00 FC 7D 
11:49:13:2960 Rx 1 0xCF00203 x 8 CC 00 00 0B FF 00 00 03 
11:49:13:2960 Rx 1 0x18F00100 x 8 FF FF FF FF 00 FF FF FF 
11:49:13:2970 Rx 1 0x14FEF031 x 8 FF FF FF FF FF FC 00 FF 
11:49:13:2970 Rx 1 0x18FE4F3E x 8 CF FF FF FF FF FF FF FF 
11:49:13:3010 Rx 1 0xCF00A01 x 8 00 00 00 00 FF FF FF FF 
11:49:13:3020 Rx 1 0x10F01A01 x 8 00 00 FF FF FF FF FF FF 
11:49:13:3020 Rx 1 0x18F0010B x 8 00 00 D0 FF FF 0D FF FF 
11:49:13:3030 Rx 1 0x10FCFD01 x 8 FF FF FF FF 00 00 FF FF 
11:49:13:3030 Rx 1 0x18FD9401 x 8 20 42 FF FF 00 00 20 03 
11:49:13:3040 Rx 1 0x18FDA101 x 8 00 04 FF FF FF FF 00 FF 
11:49:13:3050 Rx 1 0x10FDA301 x 8 FF FF FF FF FF FF FF FF 
11:49:13:3050 Rx 1 0x18FDAA01 x 8 FF FF FF FF FF FF FF 33 
11:49:13:3060 Rx 1 0x18FDD001 x 8 FF FF FF 00 33 FF FF FF 
11:49:13:3060 Rx 1 0xCF00400 x 8 08 7D 7D 00 00 00 FC 7D 
11:49:13:3070 Rx 1 0x18FDC40B x 8 1F 00 FF FF FF FF FF FF 
11:49:13:3080 Rx 1 0xCF00203 x 8 CC 00 00 0B FF 00 00 03 
11:49:13:3080 Rx 1 0x1CFE9201 x 8 FF 00 71 FF FF FF FF FF 
11:49:13:3090 Rx 1 0x18F0000F x 8 00 7D FF FF 0F 7D FF FF 
11:49:13:3090 Rx 1 0x18FEDB01 x 8 89 00 89 00 89 00 FF FF 
11:49:13:3100 Rx 1 0x18F00E3D x 8 88 90 FF FF FF FF FF FF 
11:49:13:3100 Rx 1 0x18FD6501 x 8 05 02 FF FF FF FF FF FF 
11:49:13:3110 Rx 1 0x18F00F3D x 8 88 90 FF FF FF FF FF FF 
11:49:13:3120 Rx 1 0x18FD8C3D x 8 00 00 04 00 FF FF FF FF 
11:49:13:3120 Rx 1 0x18FDB23D x 8 FF FF 13 24 00 00 FF FF 
11:49:13:3130 Rx 1 0x8FE6E0B x 8 00 00 00 00 00 00 00 00 
11:49:13:3130 Rx 1 0x10FF2121 x 8 32 00 0F C0 C0 FF FF 7D 
11:49:13:3140 Rx 1 0x18FDB300 x 8 FF FF 51 24 FF FF FF FF 
11:49:13:3150 Rx 1 0x18FDB400 x 8 51 24 51 24 FF FF FF FF 
11:49:13:3150 Rx 1 0x14FF3131 x 8 00 30 03 00 00 FF FF F0 
11:49:13:3160 Rx 1 0xCF00400 x 8 08 7D 7D 00 00 00 FC 7D 
11:49:13:3160 Rx 1 0xCF00203 x 8 CC 00 00 0B FF 00 00 03 
11:49:13:3170 Rx 1 0x18FF3000 x 8 00 00 FF FF FF FF FF FF 
11:49:13:3240 Rx 1 0x14FF2321 x 8 F4 5D E1 FF FF FF FF FF 
11:49:13:3250 Rx 1 0xCF00400 x 8 08 7D 7D 00 00 00 FC 7D 
11:49:13:3260 Rx 1 0xCF00203 x 8 CC 00 00 0B FF 00 00 03 
11:49:13:3260 Rx 1 0xCF00300 x 8 D1 00 00 FF FF FF 00 FF 
11:49:13:3270 Rx 1 0x14FFA000 x 8 FC FF FF FF FF FF FF FF 
11:49:13:3270 Rx 1 0x18FEF200 x 8 00 00 00 00 D1 05 FF FF 
11:49:13:3290 Rx 1 0xC000003 x 8 FB FF FA E1 FF F0 FF FF 
11:49:13:3320 Rx 1 0x8FE6E0B x 8 00 00 00 00 00 00 00 00 
11:49:13:3340 Rx 1 0x14FF0121 x 8 FF FF FF FF FF FF FC FF 
11:49:13:3350 Rx 1 0xCF00400 x 8 08 7D 7D 00 00 00 FC 7D 
11:49:13:3360 Rx 1 0xCF00203 x 8 CC 00 00 0B FF 00 00 03 
11:49:13:3360 Rx 1 0x18FEDF00 x 8 7D 00 13 FF 7D 00 00 FF 
11:49:13:3370 Rx 1 0x14F00031 x 8 CF FF FF FF FF FF FF FF 
11:49:13:3420 Rx 1 0x18F0233D x 8 FF FF FF FF FF 0C FF FF 
11:49:13:3420 Rx 1 0x18FD413D x 8 FF FF FF FF FC FC FC FC 
11:49:13:3430 Rx 1 0x14FF0221 x 8 FF FF FF FF FF FF FF FF 
11:49:13:3450 Rx 1 0xCF00400 x 8 08 7D 7D 00 00 00 FC 7D 
11:49:13:3460 Rx 1 0xCF00203 x 8 CC 00 00 0B FF 00 00 03 
11:49:13:3470 Rx 1 0x14F00131 x 8 FF FF FF FF 00 FF FF FF 
11:49:13:3510 Rx 1 0xCF00A01 x 8 00 00 00 00 FF FF FF FF 
11:49:13:3520 Rx 1 0x10F01A01 x 8 00 00 FF FF FF FF FF FF 
11:49:13:3530 Rx 1 0x8FE6E0B x 8 00 00 00 00 00 00 00 00 
11:49:13:3530 Rx 1 0x18FEF117 x 8 F7 FF FF FF FF FF FF FF 
11:49:13:3540 Rx 1 0x18FF2017 x 8 00 00 00 00 00 00 00 00 
11:49:13:3540 Rx 1 0x18F00E3D x 8 88 90 FF FF FF FF FF FF 
11:49:13:3550 Rx 1 0x18F00F3D x 8 88 90 FF FF FF FF FF FF 
11:49:13:3560 Rx 1 0xCF00400 x 8 08 7D 7D 00 00 00 FC 7D 
11:49:13:3560 Rx 1 0xCF00203 x 8 CC 00 00 0B FF 00 00 03 
11:49:13:3570 Rx 1 0x14FEF121 x 8 F7 FF FF CF FF FF FF FF 
11:49:13:3570 Rx 1 0x18FEF000 x 8 FF FF FF 00 00 FC 00 FF 
11:49:13:3630 Rx 1 0x10FF2121 x 8 32 00 0F C0 C0 FF FF 7D 
11:49:13:3650 Rx 1 0xCF00400 x 8 08 7D 7D 00 00 00 FC 7D 
11:49:13:3660 Rx 1 0xCF00203 x 8 CC 00 00 0B FF 00 00 03 
11:49:13:3660 Rx 1 0x18FEE000 x 8 FC 7E 42 00 FC 7E 42 00 
11:49:13:3670 Rx 1 0x14FEF131 x 8 CF FF FF F3 00 FF FF 30 
11:49:13:3720 Rx 1 0x8FE6E0B x 8 00 00 00 00 00 00 00 00 
11:49:13:3750 Rx 1 0xCF00400 x 8 08 7D 7D 00 00 00 FC 7D 
11:49:13:3760 Rx 1 0xCF00203 x 8 CC 00 00 0B FF 00 00 03 
11:49:13:3760 Rx 1 0xCF00300 x 8 D1 00 00 FF FF FF 00 FF 
11:49:13:3770 Rx 1 0xCF00421 x 8 FF FF FF FF FF FF FF FF 
11:49:13:3780 Rx 1 0x18FEF100 x 8 C7 00 00 00 00 00 00 30 
11:49:13:3850 Rx 1 0xCF00400 x 8 08 7D 7D 00 00 00 FC 7D 
11:49:13:3860 Rx 1 0xCF00203 x 8 CC 00 00 0B FF 00 00 03 
11:49:13:3860 Rx 1 0x18FEBF0B x 8 00 00 7D 7D 7D 7D FF FF 
11:49:13:3870 Rx 1 0x18FEDF00 x 8 7D 00 13 FF 7D 00 00 FF 
11:49:13:3870 Rx 1 0x14FDA421 x 8 FF FF FF FF FF FF FF FF 
11:49:13:3880 Rx 1 0x18FE4A03 x 8 FF CD 00 FF C0 F3 FA FF 
11:49:13:3890 Rx 1 0x18F00503 x 8 7D 00 00 7D 4E 20 4E 20 
11:49:13:3920 Rx 1 0x18F0233D x 8 FF FF FF FF FF 0C FF FF 
11:49:13:3920 Rx 1 0x8FE6E0B x 8 00 00 00 00 00 00 00 00 
11:49:13:3950 Rx 1 0xCF00400 x 8 08 7D 7D 00 00 00 FC 7D 
11:49:13:3960 Rx 1 0xCF00203 x 8 CC 00 00 0B FF 00 00 03 
11:49:13:3960 Rx 1 0x18F00100 x 8 FF FF FF FF 00 FF FF FF 
11:49:13:3970 Rx 1 0x18FE4F3E x 8 CF FF FF FF FF FF FF FF 
11:49:13:3970 Rx 1 0x14FEF031 x 8 FF FF FF FF FF FC 00 FF 
11:49:13:4010 Rx 1 0xCF00A01 x 8 00 00 00 00 FF FF FF FF 
11:49:13:4020 Rx 1 0x10F01A01 x 8 00 00 FF FF FF FF FF FF 
11:49:13:4020 Rx 1 0x18F0010B x 8 00 00 D0 FF FF 0D FF FF 
11:49:13:4030 Rx 1 0x10FCFD01 x 8 FF FF FF FF 00 00 FF FF 
11:49:13:4030 Rx 1 0x18FD9401 x 8 20 42 FF FF 00 00 20 03 
11:49:13:4040 Rx 1 0x18FDA101 x 8 00 04 FF FF FF FF 00 FF 
11:49:13:4050 Rx 1 0x10FDA301 x 8 FF FF FF FF FF FF FF FF 
11:49:13:4050 Rx 1 0x18FDAA01 x 8 FF FF FF FF FF FF FF 33 
11:49:13:4060 Rx 1 0x18FDD001 x 8 FF FF FF 00 33 FF FF FF 
11:49:13:4060 Rx 1 0xCF00400 x 8 08 7D 7D 00 00 00 FC 7D 
11:49:13:4070 Rx 1 0x1CFE9201 x 8 FF 00 71 FF FF FF FF FF 
11:49:13:4070 Rx 1 0xCF00203 x 8 CC 00 00 0B FF 00 00 03 
11:49:13:4080 Rx 1 0x18FDC40B x 8 1F 00 FF FF FF FF FF FF 
11:49:13:4090 Rx 1 0x18F0000F x 8 00 7D FF FF 0F 7D FF FF 
11:49:13:4090 Rx 1 0x18FEDB01 x 8 89 00 89 00 89 00 FF FF 
11:49:13:4100 Rx 1 0x18FF2421 x 8 83 F0 FF FF FF FF FF FF 
11:49:13:4100 Rx 1 0x18F00E3D x 8 88 90 FF FF FF FF FF FF 
11:49:13:4110 Rx 1 0x18F00F3D x 8 88 90 FF FF FF FF FF FF 
11:49:13:4120 Rx 1 0x18FD8C3D x 8 00 00 04 00 FF FF FF FF 
11:49:13:4120 Rx 1 0x18FDB23D x 8 FF FF 13 24 00 00 FF FF 
11:49:13:4130 Rx 1 0x8FE6E0B x 8 00 00 00 00 00 00 00 00 
11:49:13:4130 Rx 1 0x10FF2121 x 8 32 00 0F C0 C0 FF FF 7D 
11:49:13:4140 Rx 1 0x18FDB300 x 8 FF FF 51 24 FF FF FF FF 
11:49:13:4140 Rx 1 0x18FDB400 x 8 51 24 51 24 FF FF FF FF 
11:49:13:4150 Rx 1 0x14FF3131 x 8 00 30 03 00 00 FF FF F0 
11:49:13:4160 Rx 1 0xCF00400 x 8 08 7D 7D 00 00 00 FC 7D 
11:49:13:4160 Rx 1 0xCF00203 x 8 CC 00 00 0B FF 00 00 03 
11:49:13:4170 Rx 1 0x18FF3000 x 8 00 00 FF FF FF FF FF FF 
11:49:13:4240 Rx 1 0x14FF2321 x 8 F4 5D E1 FF FF FF FF FF 
11:49:13:4250 Rx 1 0xCF00400 x 8 08 7D 7D 00 00 00 FC 7D 
11:49:13:4260 Rx 1 0xCF00203 x 8 CC 00 00 0B FF 00 00 03 
11:49:13:4260 Rx 1 0xCF00300 x 8 D1 00 00 FF FF FF 00 FF 
11:49:13:4270 Rx 1 0x14FFA000 x 8 FC FF FF FF FF FF FF FF 
11:49:13:4270 Rx 1 0x18FEF200 x 8 00 00 00 00 D1 05 FF FF 
11:49:13:4290 Rx 1 0xC000003 x 8 FB FF FA E1 FF F0 FF FF 
11:49:13:4320 Rx 1 0x8FE6E0B x 8 00 00 00 00 00 00 00 00 
11:49:13:4340 Rx 1 0x14FF0121 x 8 FF FF FF FF FF FF FC FF 
11:49:13:4350 Rx 1 0xCF00400 x 8 08 7D 7D 00 00 00 FC 7D 
11:49:13:4360 Rx 1 0xCF00203 x 8 CC 00 00 0B FF 00 00 03 
11:49:13:4360 Rx 1 0x18FEDF00 x 8 7D 00 13 FF 7D 00 00 FF 
11:49:13:4370 Rx 1 0x14F00031 x 8 CF FF FF FF FF FF FF FF 
11:49:13:4420 Rx 1 0x18F0233D x 8 FF FF FF FF FF 0C FF FF 
11:49:13:4420 Rx 1 0x18FD413D x 8 FF FF FF FF FC FC FC FC 
11:49:13:4430 Rx 1 0x14FF0221 x 8 FF FF FF FF FF FF FF FF 
11:49:13:4450 Rx 1 0xCF00400 x 8 08 7D 7D 00 00 00 FC 7D 
11:49:13:4460 Rx 1 0xCF00203 x 8 CC 00 00 0B FF 00 00 03 
11:49:13:4470 Rx 1 0x14F00131 x 8 FF FF FF FF 00 FF FF FF 
11:49:13:4510 Rx 1 0xCF00A01 x 8 00 00 00 00 FF FF FF FF 
11:49:13:4520 Rx 1 0x10F01A01 x 8 00 00 FF FF FF FF FF FF 
11:49:13:4530 Rx 1 0x8FE6E0B x 8 00 00 00 00 00 00 00 00 
11:49:13:4530 Rx 1 0x18FEF117 x 8 F7 FF FF FF FF FF FF FF 
11:49:13:4540 Rx 1 0x18FF2017 x 8 00 00 00 00 00 00 00 00 
11:49:13:4540 Rx 1 0x18F00E3D x 8 88 90 FF FF FF FF FF FF 
11:49:13:4550 Rx 1 0x18F00F3D x 8 88 90 FF FF FF FF FF FF 
11:49:13:4560 Rx 1 0xCF00400 x 8 08 7D 7D 00 00 00 FC 7D 
11:49:13:4560 Rx 1 0xCF00203 x 8 CC 00 00 0B FF 00 00 03 
11:49:13:4570 Rx 1 0x14FEF121 x 8 F7 FF FF CF FF FF FF FF 
11:49:13:4570 Rx 1 0x18FEF000 x 8 FF FF FF 00 00 FC 00 FF 
11:49:13:4580 Rx 1 0x18FEF34A x 8 5D C7 78 9A 24 55 E0 33 
11:49:13:4580 Rx 1 0x18FEE84A x 8 E0 04 00 00 FF FF BA 4E 
11:49:13:4640 Rx 1 0x10FF2121 x 8 32 00 0F C0 C0 FF FF 7D 
11:49:13:4650 Rx 1 0xCF00400 x 8 08 7D 7D 00 00 00 FC 7D 
11:49:13:4660 Rx 1 0xCF00203 x 8 CC 00 00 0B FF 00 00 03 
11:49:13:4660 Rx 1 0x18FEE000 x 8 FC 7E 42 00 FC 7E 42 00 
11:49:13:4670 Rx 1 0x14FEF131 x 8 CF FF FF F3 00 FF FF 30 
11:49:13:4720 Rx 1 0x8FE6E0B x 8 00 00 00 00 00 00 00 00 
11:49:13:4750 Rx 1 0xCF00400 x 8 08 7D 7D 00 00 00 FC 7D 
11:49:13:4760 Rx 1 0xCF00203 x 8 CC 00 00 0B FF 00 00 03 
11:49:13:4760 Rx 1 0xCF00300 x 8 D1 00 00 FF FF FF 00 FF 
11:49:13:4770 Rx 1 0xCF00421 x 8 FF FF FF FF FF FF FF FF 
11:49:13:4780 Rx 1 0x18FEF100 x 8 C7 00 00 00 00 00 00 30 
11:49:13:4850 Rx 1 0xCF00400 x 8 08 7D 7D 00 00 00 FC 7D 
11:49:13:4860 Rx 1 0xCF00203 x 8 CC 00 00 0B FF 00 00 03 
11:49:13:4860 Rx 1 0x18FEBF0B x 8 00 00 7D 7D 7D 7D FF FF 
11:49:13:4870 Rx 1 0x18FEDF00 x 8 7D 00 13 FF 7D 00 00 FF 
11:49:13:4870 Rx 1 0x14FDA421 x 8 FF FF FF FF FF FF FF FF 
11:49:13:4880 Rx 1 0x18FE4A03 x 8 FF CD 00 FF C0 F3 FA FF 
11:49:13:4890 Rx 1 0x18F00503 x 8 7D 00 00 7D 4E 20 4E 20 
11:49:13:4920 Rx 1 0x18F0233D x 8 FF FF FF FF FF 0C FF FF 
11:49:13:4920 Rx 1 0x8FE6E0B x 8 00 00 00 00 00 00 00 00 
11:49:13:4950 Rx 1 0xCF00400 x 8 08 7D 7D 00 00 00 FC 7D 
11:49:13:4960 Rx 1 0xCF00203 x 8 CC 00 00 0B FF 00 00 03 
11:49:13:4960 Rx 1 0x18F00100 x 8 FF FF FF FF 00 FF FF FF 
11:49:13:4970 Rx 1 0x14FEF031 x 8 FF FF FF FF FF FC 00 FF 
11:49:13:4970 Rx 1 0x18FE4F3E x 8 CF FF FF FF FF FF FF FF 
11:49:13:5010 Rx 1 0xCF00A01 x 8 00 00 00 00 FF FF FF FF 
11:49:13:5020 Rx 1 0x10F01A01 x 8 00 00 FF FF FF FF FF FF 
11:49:13:5020 Rx 1 0x18F0010B x 8 00 00 D0 FF FF 0D FF FF 
11:49:13:5030 Rx 1 0x10FCFD01 x 8 FF FF FF FF 00 00 FF FF 
11:49:13:5030 Rx 1 0x18FD9401 x 8 20 42 FF FF 00 00 20 03 
11:49:13:5040 Rx 1 0x18FDA101 x 8 00 04 FF FF FF FF 00 FF 
11:49:13:5050 Rx 1 0x10FDA301 x 8 FF FF FF FF FF FF FF FF 
11:49:13:5050 Rx 1 0x18FDAA01 x 8 FF FF FF FF FF FF FF 33 
11:49:13:5060 Rx 1 0x18FDD001 x 8 FF FF FF 00 33 FF FF FF 
11:49:13:5060 Rx 1 0xCF00400 x 8 08 7D 7D 00 00 00 FC 7D 
11:49:13:5070 Rx 1 0x1CFE9201 x 8 FF 00 71 FF FF FF FF FF 
11:49:13:5070 Rx 1 0xCF00203 x 8 CC 00 00 0B FF 00 00 03 
11:49:13:5080 Rx 1 0x18FDC40B x 8 1F 00 FF FF FF FF FF FF 
11:49:13:5090 Rx 1 0x18F0000F x 8 00 7D FF FF 0F 7D FF FF 
11:49:13:5090 Rx 1 0x18FEDB01 x 8 89 00 89 00 89 00 FF FF 
11:49:13:5100 Rx 1 0x18F00E3D x 8 88 90 FF FF FF FF FF FF 
11:49:13:5100 Rx 1 0x18F00F3D x 8 88 90 FF FF FF FF FF FF 
11:49:13:5110 Rx 1 0x18FD8C3D x 8 00 00 04 00 FF FF FF FF 
11:49:13:5120 Rx 1 0x18FDB23D x 8 FF FF 13 24 00 00 FF FF 
11:49:13:5120 Rx 1 0x18FDB300 x 8 FF FF 51 24 FF FF FF FF 
11:49:13:5130 Rx 1 0x8FE6E0B x 8 00 00 00 00 00 00 00 00 
11:49:13:5130 Rx 1 0x18FDB400 x 8 51 24 51 24 FF FF FF FF 
11:49:13:5140 Rx 1 0x10FF2121 x 8 32 00 0F C0 C0 FF FF 7D 
11:49:13:5150 Rx 1 0x14FF3131 x 8 00 30 03 00 00 FF FF F0 
11:49:13:5150 Rx 1 0xCF00400 x 8 08 7D 7D 00 00 00 FC 7D 
11:49:13:5160 Rx 1 0xCF00203 x 8 CC 00 00 0B FF 00 00 03 
11:49:13:5170 Rx 1 0x18FF3000 x 8 00 00 FF FF FF FF FF FF 
11:49:13:5240 Rx 1 0x18FF1919 x 8 01 03 00 00 FF FF FF FF 
11:49:13:5240 Rx 1 0x14FF2321 x 8 F4 5D E1 FF FF FF FF FF 
11:49:13:5250 Rx 1 0xCF00400 x 8 08 7D 7D 00 00 00 FC 7D 
11:49:13:5260 Rx 1 0xCF00203 x 8 CC 00 00 0B FF 00 00 03 
11:49:13:5260 Rx 1 0xCF00300 x 8 D1 00 00 FF FF FF 00 FF 
11:49:13:5270 Rx 1 0x14FFA000 x 8 FC FF FF FF FF FF FF FF 
11:49:13:5270 Rx 1 0x18FEF200 x 8 00 00 00 00 D1 05 FF FF 
11:49:13:5290 Rx 1 0x18FF1B19 x 8 FF FC FF FF FF FF FF FF 
11:49:13:5300 Rx 1 0xC000003 x 8 FB FF FA E1 FF F0 FF FF 
11:49:13:5320 Rx 1 0x8FE6E0B x 8 00 00 00 00 00 00 00 00 
11:49:13:5340 Rx 1 0x14FF0121 x 8 FF FF FF FF FF FF FC FF 
11:49:13:5350 Rx 1 0x18E00019 x 8 00 FF FF FF FF FF FF FF 
11:49:13:5350 Rx 1 0xCF00400 x 8 08 7D 7D 00 00 00 FC 7D 
11:49:13:5360 Rx 1 0xCF00203 x 8 CC 00 00 0B FF 00 00 03 
11:49:13:5360 Rx 1 0x18FEDF00 x 8 7D 00 13 FF 7D 00 00 FF 
11:49:13:5370 Rx 1 0x14F00031 x 8 CF FF FF FF FF FF FF FF 
11:49:13:5390 Rx 1 0x18FEF719 x 8 FF FF FF FF FF FF F8 00 
11:49:13:5420 Rx 1 0x18F0233D x 8 FF FF FF FF FF 0C FF FF 
11:49:13:5420 Rx 1 0x18FD413D x 8 FF FF FF FF FC FC FC FC 
11:49:13:5430 Rx 1 0x14FF0221 x 8 FF FF FF FF FF FF FF FF 
11:49:13:5450 Rx 1 0xCF00400 x 8 08 7D 7D 00 00 00 FC 7D 
11:49:13:5460 Rx 1 0xCF00203 x 8 CC 00 00 0B FF 00 00 03 
11:49:13:5470 Rx 1 0x14F00131 x 8 FF FF FF FF 00 FF FF FF 
11:49:13:5510 Rx 1 0xCF00A01 x 8 00 00 00 00 FF FF FF FF 
11:49:13:5520 Rx 1 0x10F01A01 x 8 00 00 FF FF FF FF FF FF 
11:49:13:5530 Rx 1 0x8FE6E0B x 8 00 00 00 00 00 00 00 00 
11:49:13:5530 Rx 1 0x18FEF117 x 8 F7 FF FF FF FF FF FF FF 
11:49:13:5540 Rx 1 0x18FF2017 x 8 00 00 00 00 00 00 00 00 
11:49:13:5540 Rx 1 0x18F00E3D x 8 88 90 FF FF FF FF FF FF 
11:49:13:5550 Rx 1 0x18F00F3D x 8 88 90 FF FF FF FF FF FF 
11:49:13:5560 Rx 1 0xCF00400 x 8 08 7D 7D 00 00 00 FC 7D 
11:49:13:5560 Rx 1 0xCF00203 x 8 CC 00 00 0B FF 00 00 03 
11:49:13:5570 Rx 1 0x14FEF121 x 8 F7 FF FF CF FF FF FF FF 
11:49:13:5570 Rx 1 0x18FEF000 x 8 FF FF FF 00 00 FC 00 FF 
11:49:13:5640 Rx 1 0x10FF2121 x 8 32 00 0F C0 C0 FF FF 7D 
11:49:13:5650 Rx 1 0xCF00400 x 8 08 7D 7D 00 00 00 FC 7D 
11:49:13:5660 Rx 1 0xCF00203 x 8 CC 00 00 0B FF 00 00 03 
11:49:13:5660 Rx 1 0x18FEE000 x 8 FC 7E 42 00 FC 7E 42 00 
11:49:13:5670 Rx 1 0x18FECA00 x 8 03 FF 00 00 00 00 FF FF 
11:49:13:5670 Rx 1 0x14FEF131 x 8 CF FF FF F3 00 FF FF 30 
11:49:13:5720 Rx 1 0x8FE6E0B x 8 00 00 00 00 00 00 00 00 
11:49:13:5750 Rx 1 0xCF00400 x 8 08 7D 7D 00 00 00 FC 7D 
11:49:13:5760 Rx 1 0x1CECFF0F x 8 20 13 00 03 FF E1 FE 00 
11:49:13:5770 Rx 1 0xCF00421 x 8 FF FF FF FF FF FF FF FF 
11:49:13:5770 Rx 1 0xCF00203 x 8 CC 00 00 0B FF 00 00 03 
11:49:13:5780 Rx 1 0xCF00300 x 8 D1 00 00 FF FF FF 00 FF 
11:49:13:5780 Rx 1 0x18FEF100 x 8 C7 00 00 00 00 00 00 30 
11:49:13:5790 Rx 1 0x18FDE000 x 8 FF FF FF FF A0 23 FF FF 
11:49:13:5800 Rx 1 0x1CFEAB03 x 8 7D 82 7D FF FF FF FF FF 
11:49:13:5850 Rx 1 0xCF00400 x 8 08 7D 7D 00 00 00 FC 7D 
11:49:13:5860 Rx 1 0x1CECFF00 x 8 20 27 00 06 FF E3 FE 00 
11:49:13:5860 Rx 1 0x18FEBF0B x 8 00 00 7D 7D 7D 7D FF FF 
11:49:13:5870 Rx 1 0xCF00203 x 8 CC 00 00 0B FF 00 00 03 
11:49:13:5870 Rx 1 0x14FDA421 x 8 FF FF FF FF FF FF FF FF 
11:49:13:5880 Rx 1 0x18FEDF00 x 8 7D 00 13 FF 7D 00 00 FF 
11:49:13:5890 Rx 1 0x18FE4A03 x 8 FF CD 00 FF C0 F3 FA FF 
11:49:13:5890 Rx 1 0x18F00503 x 8 7D 00 00 7D 4E 20 4E 20 
11:49:13:5900 Rx 1 0x18FEEF00 x 8 19 FF FF 00 FF FF FF FA 
11:49:13:5920 Rx 1 0x18F0233D x 8 FF FF FF FF FF 0C FF FF 
11:49:13:5920 Rx 1 0x8FE6E0B x 8 00 00 00 00 00 00 00 00 
11:49:13:5950 Rx 1 0xCF00400 x 8 08 7D 7D 00 00 00 FC 7D 
11:49:13:5960 Rx 1 0xCF00203 x 8 CC 00 00 0B FF 00 00 03 
11:49:13:5960 Rx 1 0x18F00100 x 8 FF FF FF FF 00 FF FF FF 
11:49:13:5970 Rx 1 0x18FE4F3E x 8 CF FF FF FF FF FF FF FF 
11:49:13:5970 Rx 1 0x14FEF031 x 8 FF FF FF FF FF FC 00 FF 
11:49:13:5980 Rx 1 0x18FCDC00 x 8 E0 FE FE FF FF FF FF FF 
11:49:13:6010 Rx 1 0xCF00A01 x 8 00 00 00 00 FF FF FF FF 
11:49:13:6020 Rx 1 0x10F01A01 x 8 00 00 FF FF FF FF FF FF 
11:49:13:6020 Rx 1 0x18F0010B x 8 00 00 D0 FF FF 0D FF FF 
11:49:13:6030 Rx 1 0x10FCFD01 x 8 FF FF FF FF 00 00 FF FF 
11:49:13:6030 Rx 1 0x18FD9401 x 8 20 42 FF FF 00 00 20 03 
11:49:13:6040 Rx 1 0x18FDA101 x 8 00 04 FF FF FF FF 00 FF 
11:49:13:6050 Rx 1 0x10FDA301 x 8 FF FF FF FF FF FF FF FF 
11:49:13:6050 Rx 1 0x18FDAA01 x 8 FF FF FF FF FF FF FF 33 
11:49:13:6060 Rx 1 0x18FDD001 x 8 FF FF FF 00 33 FF FF FF 
11:49:13:6060 Rx 1 0xCF00400 x 8 08 7D 7D 00 00 00 FC 7D 
11:49:13:6070 Rx 1 0x1CFE9201 x 8 FF 00 71 FF FF FF FF FF 
11:49:13:6070 Rx 1 0xCF00203 x 8 CC 00 00 0B FF 00 00 03 
11:49:13:6080 Rx 1 0x18FDC40B x 8 1F 00 FF FF FF FF FF FF 
11:49:13:6090 Rx 1 0x18F0000F x 8 00 7D FF FF 0F 7D FF FF 
11:49:13:6090 Rx 1 0x18FEDB01 x 8 89 00 89 00 89 00 FF FF 
11:49:13:6100 Rx 1 0x18F00E3D x 8 88 90 FF FF FF FF FF FF 
11:49:13:6100 Rx 1 0x18F00F3D x 8 88 90 FF FF FF FF FF FF 
11:49:13:6110 Rx 1 0x18FD8C3D x 8 00 00 04 00 FF FF FF FF 
11:49:13:6120 Rx 1 0x18FDB23D x 8 FF FF 13 24 00 00 FF FF 
11:49:13:6120 Rx 1 0x18FDB300 x 8 FF FF 51 24 FF FF FF FF 
11:49:13:6130 Rx 1 0x8FE6E0B x 8 00 00 00 00 00 00 00 00 
11:49:13:6130 Rx 1 0x10FF2121 x 8 32 00 0F C0 C0 FF FF 7D 
11:49:13:6140 Rx 1 0x18FDB400 x 8 51 24 51 24 FF FF FF FF 
11:49:13:6150 Rx 1 0x14FF3131 x 8 00 30 03 00 00 FF FF F0 
11:49:13:6150 Rx 1 0xCF00400 x 8 08 7D 7D 00 00 00 FC 7D 
11:49:13:6160 Rx 1 0xCF00203 x 8 CC 00 00 0B FF 00 00 03 
11:49:13:6170 Rx 1 0x18FF3000 x 8 00 00 FF FF FF FF FF FF 
11:49:13:6240 Rx 1 0x14FF2321 x 8 F4 5D E1 FF FF FF FF FF 
11:49:13:6250 Rx 1 0xCF00400 x 8 08 7D 7D 00 00 00 FC 7D 
11:49:13:6250 Rx 1 0x1CEBFF0F x 8 01 03 03 60 22 46 80 4D 
11:49:13:6260 Rx 1 0xCF00203 x 8 CC 00 00 0B FF 00 00 03 
11:49:13:6270 Rx 1 0xCF00300 x 8 D1 00 00 FF FF FF 00 FF 
11:49:13:6270 Rx 1 0x14FFA000 x 8 FC FF FF FF FF FF FF FF 
11:49:13:6280 Rx 1 0x18FEF200 x 8 00 00 00 00 D1 05 FF FF 
11:49:13:6280 Rx 1 0x18FEF500 x 8 CC FF FF FF FF 37 FF FF 
11:49:13:6290 Rx 1 0xC000003 x 8 FB FF FA E1 FF F0 FF FF 
11:49:13:6320 Rx 1 0x8FE6E0B x 8 00 00 00 00 00 00 00 00 
11:49:13:6350 Rx 1 0x14FF0121 x 8 FF FF FF FF FF FF FC FF 
11:49:13:6350 Rx 1 0xCF00400 x 8 08 7D 7D 00 00 00 FC 7D 
11:49:13:6360 Rx 1 0xCF00203 x 8 CC 00 00 0B FF 00 00 03 
11:49:13:6370 Rx 1 0x18FEDF00 x 8 7D 00 13 FF 7D 00 00 FF 
11:49:13:6380 Rx 1 0x14F00031 x 8 CF FF FF FF FF FF FF FF 
11:49:13:6420 Rx 1 0x18F0233D x 8 FF FF FF FF FF 0C FF FF 
11:49:13:6420 Rx 1 0x18FD413D x 8 FF FF FF FF FC FC FC FC 
11:49:13:6440 Rx 1 0x14FF0221 x 8 FF FF FF FF FF FF FF FF 
11:49:13:6450 Rx 1 0xCF00400 x 8 08 7D 7D 00 00 00 FC 7D 
11:49:13:6460 Rx 1 0x1CEBFF00 x 8 01 00 13 BA 00 41 BD 80 
11:49:13:6460 Rx 1 0xCF00203 x 8 CC 00 00 0B FF 00 00 03 
11:49:13:6470 Rx 1 0x18FEEE00 x 8 34 34 A0 23 FF FF 37 FF 
11:49:13:6470 Rx 1 0x18FF1703 x 8 FC FF FF FF FF FF FF FF 
11:49:13:6480 Rx 1 0x14F00131 x 8 FF FF FF FF 00 FF FF FF 
11:49:13:6510 Rx 1 0xCF00A01 x 8 00 00 00 00 FF FF FF FF 
11:49:13:6520 Rx 1 0x10F01A01 x 8 00 00 FF FF FF FF FF FF 
11:49:13:6530 Rx 1 0x8FE6E0B x 8 00 00 00 00 00 00 00 00 
11:49:13:6540 Rx 1 0x18F00E3D x 8 88 90 FF FF FF FF FF FF 
11:49:13:6550 Rx 1 0x18FEF117 x 8 F7 FF FF FF FF FF FF FF 
11:49:13:6560 Rx 1 0xCF00400 x 8 08 7D 7D 00 00 00 FC 7D 
11:49:13:6560 Rx 1 0x18F00F3D x 8 88 90 FF FF FF FF FF FF 
11:49:13:6570 Rx 1 0xCF00203 x 8 CC 00 00 0B FF 00 00 03 
11:49:13:6570 Rx 1 0x14FEF121 x 8 F7 FF FF CF FF FF FF FF 
11:49:13:6580 Rx 1 0x18FEF000 x 8 FF FF FF 00 00 FC 00 FF 
11:49:13:6580 Rx 1 0x18FF2017 x 8 00 00 00 00 00 00 00 00 
11:49:13:6590 Rx 1 0x18FEA400 x 8 FF FF FF FF 2D 7D 20 22 
11:49:13:6600 Rx 1 0x18FECA03 x 8 03 FF 00 00 00 00 FF FF 
11:49:13:6640 Rx 1 0x10FF2121 x 8 32 00 0F C0 C0 FF FF 7D 
11:49:13:6650 Rx 1 0xCF00400 x 8 08 7D 7D 00 00 00 FC 7D 
11:49:13:6660 Rx 1 0xCF00203 x 8 CC 00 00 0B FF 00 00 03 
11:49:13:6660 Rx 1 0x14FD3E00 x 8 10 24 FF 10 24 FF FF FF 
11:49:13:6670 Rx 1 0x18FEE000 x 8 FC 7E 42 00 FC 7E 42 00 
11:49:13:6670 Rx 1 0x14FEF131 x 8 CF FF FF F3 00 FF FF 30 
11:49:13:6720 Rx 1 0x8FE6E0B x 8 00 00 00 00 00 00 00 00 
11:49:13:6750 Rx 1 0xCF00400 x 8 08 7D 7D 00 00 00 FC 7D 
11:49:13:6760 Rx 1 0x1CEBFF0F x 8 02 25 28 2D 25 B8 42 20 
11:49:13:6760 Rx 1 0xCF00203 x 8 CC 00 00 0B FF 00 00 03 
11:49:13:6770 Rx 1 0xCF00300 x 8 D1 00 00 FF FF FF 00 FF 
11:49:13:6780 Rx 1 0xCF00421 x 8 FF FF FF FF FF FF FF FF 
11:49:13:6780 Rx 1 0x18FEF100 x 8 C7 00 00 00 00 00 00 30 
11:49:13:6790 Rx 1 0x18FEBD00 x 8 00 F0 00 00 FF FF FF FF 
11:49:13:6790 Rx 1 0x18FD0700 x 8 43 00 00 3F FC FF FF FF 
11:49:13:6850 Rx 1 0xCF00400 x 8 08 7D 7D 00 00 00 FC 7D 
11:49:13:6860 Rx 1 0xCF00203 x 8 CC 00 00 0B FF 00 00 03 
11:49:13:6860 Rx 1 0x18FEBF0B x 8 00 00 7D 7D 7D 7D FF FF 
11:49:13:6870 Rx 1 0x18FEDF00 x 8 7D 00 13 FF 7D 00 00 FF 
11:49:13:6870 Rx 1 0x18FE4A03 x 8 FF CD 00 FF C0 F3 FA FF 
11:49:13:6880 Rx 1 0x14FDA421 x 8 FF FF FF FF FF FF FF FF 
11:49:13:6890 Rx 1 0x18F00503 x 8 7D 00 00 7D 4E 20 4E 20 
11:49:13:6890 Rx 1 0x18FF7400 x 8 D3 00 FF FF FF FC FF FF 
11:49:13:6920 Rx 1 0x18F0233D x 8 FF FF FF FF FF 0C FF FF 
11:49:13:6920 Rx 1 0x8FE6E0B x 8 00 00 00 00 00 00 00 00 
11:49:13:6950 Rx 1 0xCF00400 x 8 08 7D 7D 00 00 00 FC 7D 
11:49:13:6960 Rx 1 0x1CEBFF00 x 8 02 1E D6 C0 26 E1 80 35 
11:49:13:6960 Rx 1 0xCF00203 x 8 CC 00 00 0B FF 00 00 03 
11:49:13:6970 Rx 1 0x18FE4F3E x 8 CF FF FF FF FF FF FF FF 
11:49:13:6970 Rx 1 0x18F00100 x 8 FF FF FF FF 00 FF FF FF 
11:49:13:6980 Rx 1 0x14FEF031 x 8 FF FF FF FF FF FC 00 FF 
11:49:13:6990 Rx 1 0x18FD7C00 x 8 F8 F3 C0 34 30 FF E3 FF 
11:49:13:7010 Rx 1 0xCF00A01 x 8 00 00 00 00 FF FF FF FF 
11:49:13:7020 Rx 1 0x10F01A01 x 8 00 00 FF FF FF FF FF FF 
11:49:13:7020 Rx 1 0x18F0010B x 8 00 00 D0 FF FF 0D FF FF 
11:49:13:7030 Rx 1 0x10FCFD01 x 8 FF FF FF FF 00 00 FF FF 
11:49:13:7030 Rx 1 0x18FD9401 x 8 20 42 FF FF 00 00 20 03 
11:49:13:7040 Rx 1 0x18FDA101 x 8 00 04 FF FF FF FF 00 FF 
11:49:13:7050 Rx 1 0x10FDA301 x 8 FF FF FF FF FF FF FF FF 
11:49:13:7050 Rx 1 0x18FDAA01 x 8 FF FF FF FF FF FF FF 33 
11:49:13:7060 Rx 1 0x18FDD001 x 8 FF FF FF 00 33 FF FF FF 
11:49:13:7060 Rx 1 0xCF00400 x 8 08 7D 7D 00 00 00 FC 7D 
11:49:13:7070 Rx 1 0x1CFE9201 x 8 FF 00 71 FF FF FF FF FF 
11:49:13:7070 Rx 1 0xCF00203 x 8 CC 00 00 0B FF 00 00 03 
11:49:13:7080 Rx 1 0x18FDC40B x 8 1F 00 FF FF FF FF FF FF 
11:49:13:7090 Rx 1 0x18F0000F x 8 00 7D FF FF 0F 7D FF FF 
11:49:13:7090 Rx 1 0x18FEDB01 x 8 89 00 89 00 89 00 FF FF 
11:49:13:7100 Rx 1 0x18FEF600 x 8 FF 00 37 33 FF 4C 24 FF 
11:49:13:7100 Rx 1 0x18F00E3D x 8 88 90 FF FF FF FF FF FF 
11:49:13:7110 Rx 1 0x18FEE400 x 8 00 7F FF FC 00 7F FF FF 
11:49:13:7110 Rx 1 0x18F00F3D x 8 88 90 FF FF FF FF FF FF 
11:49:13:7120 Rx 1 0x18FD8C3D x 8 00 00 04 00 FF FF FF FF 
11:49:13:7130 Rx 1 0x8FE6E0B x 8 00 00 00 00 00 00 00 00 
11:49:13:7130 Rx 1 0x10FF2121 x 8 32 00 0F C0 C0 FF FF 7D 
11:49:13:7140 Rx 1 0x18FDB23D x 8 FF FF 13 24 00 00 FF FF 
11:49:13:7140 Rx 1 0x18FDB300 x 8 FF FF 51 24 FF FF FF FF 
11:49:13:7150 Rx 1 0x14FF3131 x 8 00 30 03 00 00 FF FF F0 
11:49:13:7160 Rx 1 0x18FDB400 x 8 51 24 51 24 FF FF FF FF 
11:49:13:7160 Rx 1 0xCF00400 x 8 08 7D 7D 00 00 00 FC 7D 
11:49:13:7170 Rx 1 0xCF00203 x 8 CC 00 00 0B FF 00 00 03 
11:49:13:7170 Rx 1 0x18FF3000 x 8 00 00 FF FF FF FF FF FF 
11:49:13:7240 Rx 1 0x14FF2321 x 8 F4 5D E1 FF FF FF FF FF 
11:49:13:7250 Rx 1 0xCF00400 x 8 08 7D 7D 00 00 00 FC 7D 
11:49:13:7250 Rx 1 0x1CEBFF0F x 8 03 20 35 78 05 19 FF FF 
11:49:13:7260 Rx 1 0xCF00203 x 8 CC 00 00 0B FF 00 00 03 
11:49:13:7270 Rx 1 0xCF00300 x 8 D1 00 00 FF FF FF 00 FF 
11:49:13:7270 Rx 1 0x14FFA000 x 8 FC FF FF FF FF FF FF FF 
11:49:13:7280 Rx 1 0x18FEF200 x 8 00 00 00 00 D1 05 FF FF 
11:49:13:7290 Rx 1 0xC000003 x 8 FB FF FA E1 FF F0 FF FF 
11:49:13:7320 Rx 1 0x8FE6E0B x 8 00 00 00 00 00 00 00 00 
11:49:13:7340 Rx 1 0x14FF0121 x 8 FF FF FF FF FF FF FC FF 
11:49:13:7350 Rx 1 0xCF00400 x 8 08 7D 7D 00 00 00 FC 7D 
11:49:13:7360 Rx 1 0xCF00203 x 8 CC 00 00 0B FF 00 00 03 
11:49:13:7360 Rx 1 0x18FEDF00 x 8 7D 00 13 FF 7D 00 00 FF 
11:49:13:7370 Rx 1 0x18FE5600 x 8 52 35 FF FF 1F 1F 00 FF 
11:49:13:7380 Rx 1 0x14F00031 x 8 CF FF FF FF FF FF FF FF 
11:49:13:7420 Rx 1 0x18F0233D x 8 FF FF FF FF FF 0C FF FF 
11:49:13:7420 Rx 1 0x18FD413D x 8 FF FF FF FF FC FC FC FC 
11:49:13:7440 Rx 1 0x14FF0221 x 8 FF FF FF FF FF FF FF FF 
11:49:13:7450 Rx 1 0xCF00400 x 8 08 7D 7D 00 00 00 FC 7D 
11:49:13:7460 Rx 1 0x1CEBFF00 x 8 03 DA 19 43 FF FF B2 09 
11:49:13:7460 Rx 1 0xCF00203 x 8 CC 00 00 0B FF 00 00 03 
11:49:13:7470 Rx 1 0x18FEC100 x 8 97 66 7E 06 97 66 7E 06 
11:49:13:7480 Rx 1 0x14F00131 x 8 FF FF FF FF 00 FF FF FF 
11:49:13:7510 Rx 1 0xCF00A01 x 8 00 00 00 00 FF FF FF FF 
11:49:13:7520 Rx 1 0x10F01A01 x 8 00 00 FF FF FF FF FF FF 
11:49:13:7530 Rx 1 0x8FE6E0B x 8 00 00 00 00 00 00 00 00 
11:49:13:7540 Rx 1 0x18FEF117 x 8 F7 FF FF FF FF FF FF FF 
11:49:13:7540 Rx 1 0x18FF2017 x 8 00 00 00 00 00 00 00 00 
11:49:13:7550 Rx 1 0x18F00E3D x 8 88 90 FF FF FF FF FF FF 
11:49:13:7550 Rx 1 0xCF00400 x 8 08 7D 7D 00 00 00 FC 7D 
11:49:13:7560 Rx 1 0x18F00F3D x 8 88 90 FF FF FF FF FF FF 
11:49:13:7570 Rx 1 0xCF00203 x 8 CC 00 00 0B FF 00 00 03 
11:49:13:7570 Rx 1 0x18FEF000 x 8 FF FF FF 00 00 FC 00 FF 
11:49:13:7580 Rx 1 0x14FEF121 x 8 F7 FF FF CF FF FF FF FF 
11:49:13:7580 Rx 1 0x18FEF700 x 8 FF FF FF FF FA 00 F9 00 
11:49:13:7640 Rx 1 0x10FF2121 x 8 32 00 0F C0 C0 FF FF 7D 
11:49:13:7650 Rx 1 0xCF00400 x 8 08 7D 7D 00 00 00 FC 7D 
11:49:13:7660 Rx 1 0xCF00203 x 8 CC 00 00 0B FF 00 00 03 
11:49:13:7660 Rx 1 0x18FEE000 x 8 FC 7E 42 00 FC 7E 42 00 
11:49:13:7670 Rx 1 0x18FEF803 x 8 FF FF FF FF B6 23 FF FF 
11:49:13:7670 Rx 1 0x18FEFF00 x 8 FC FF FF FF FF FF FF FF 
11:49:13:7680 Rx 1 0x14FEF131 x 8 CF FF FF F3 00 FF FF 30 
11:49:13:7730 Rx 1 0x8FE6E0B x 8 00 00 00 00 00 00 00 00 
11:49:13:7750 Rx 1 0xCF00400 x 8 08 7D 7D 00 00 00 FC 7D 
11:49:13:7760 Rx 1 0xCF00203 x 8 CC 00 00 0B FF 00 00 03 
11:49:13:7760 Rx 1 0xCF00300 x 8 D1 00 00 FF FF FF 00 FF 
11:49:13:7770 Rx 1 0x18FEF100 x 8 C7 00 00 00 00 00 00 30 
11:49:13:7780 Rx 1 0xCF00421 x 8 FF FF FF FF FF FF FF FF 
11:49:13:7850 Rx 1 0xCF00400 x 8 08 7D 7D 00 00 00 FC 7D 
11:49:13:7860 Rx 1 0xCF00203 x 8 CC 00 00 0B FF 00 00 03 
11:49:13:7860 Rx 1 0x18FEBF0B x 8 00 00 7D 7D 7D 7D FF FF 
11:49:13:7870 Rx 1 0x18FEDF00 x 8 7D 00 13 FF 7D 00 00 FF 
11:49:13:7870 Rx 1 0x18FE4A03 x 8 FF CD 00 FF C0 F3 FA FF 
11:49:13:7880 Rx 1 0x14FDA421 x 8 FF FF FF FF FF FF FF FF 
11:49:13:7890 Rx 1 0x18F00503 x 8 7D 00 00 7D 4E 20 4E 20 
11:49:13:7920 Rx 1 0x18F0233D x 8 FF FF FF FF FF 0C FF FF 
11:49:13:7920 Rx 1 0x8FE6E0B x 8 00 00 00 00 00 00 00 00 
11:49:13:7950 Rx 1 0xCF00400 x 8 08 7D 7D 00 00 00 FC 7D 
11:49:13:7960 Rx 1 0x1CEBFF00 x 8 04 80 4D 32 FF FF FF FF 
11:49:13:7960 Rx 1 0xCF00203 x 8 CC 00 00 0B FF 00 00 03 
11:49:13:7970 Rx 1 0x18FE4F3E x 8 CF FF FF FF FF FF FF FF 
11:49:13:7970 Rx 1 0x18F00100 x 8 FF FF FF FF 00 FF FF FF 
11:49:13:7980 Rx 1 0x14FEF031 x 8 FF FF FF FF FF FC 00 FF 
11:49:13:8010 Rx 1 0xCF00A01 x 8 00 00 00 00 FF FF FF FF 
11:49:13:8020 Rx 1 0x10F01A01 x 8 00 00 FF FF FF FF FF FF 
11:49:13:8020 Rx 1 0x18F0010B x 8 00 00 D0 FF FF 0D FF FF 
11:49:13:8030 Rx 1 0x18FECA01 x 8 03 FF 00 00 00 00 FF FF 
11:49:13:8030 Rx 1 0x10FCFD01 x 8 FF FF FF FF 00 00 FF FF 
11:49:13:8040 Rx 1 0x18FD9401 x 8 20 42 FF FF 00 00 20 03 
11:49:13:8050 Rx 1 0x18FDA101 x 8 00 04 FF FF FF FF 00 FF 
11:49:13:8050 Rx 1 0x10FDA301 x 8 FF FF FF FF FF FF FF FF 
11:49:13:8060 Rx 1 0x18FDAA01 x 8 FF FF FF FF FF FF FF 33 
11:49:13:8060 Rx 1 0xCF00400 x 8 08 7D 7D 00 00 00 FC 7D 
11:49:13:8070 Rx 1 0x18FDD001 x 8 FF FF FF 00 33 FF FF FF 
11:49:13:8070 Rx 1 0xCF00203 x 8 CC 00 00 0B FF 00 00 03 
11:49:13:8080 Rx 1 0x18FDC40B x 8 1F 00 FF FF FF FF FF FF 
11:49:13:8090 Rx 1 0x18F0000F x 8 00 7D FF FF 0F 7D FF FF 
11:49:13:8090 Rx 1 0x1CFE9201 x 8 FF 00 71 FF FF FF FF FF 
11:49:13:8100 Rx 1 0x18FEDB01 x 8 89 00 89 00 89 00 FF FF 
11:49:13:8100 Rx 1 0x18F00E3D x 8 88 90 FF FF FF FF FF FF 
11:49:13:8110 Rx 1 0x18F00F3D x 8 88 90 FF FF FF FF FF FF 
11:49:13:8120 Rx 1 0x18FECA3D x 8 43 FF 00 00 00 00 FF FF 
11:49:13:8120 Rx 1 0x18FD8C3D x 8 00 00 04 00 FF FF FF FF 
11:49:13:8130 Rx 1 0x8FE6E0B x 8 00 00 00 00 00 00 00 00 
11:49:13:8130 Rx 1 0x18FDB23D x 8 FF FF 13 24 00 00 FF FF 
11:49:13:8140 Rx 1 0x18FDB300 x 8 FF FF 51 24 FF FF FF FF 
11:49:13:8140 Rx 1 0x10FF2121 x 8 32 00 0F C0 C0 FF FF 7D 
11:49:13:8150 Rx 1 0x18FD6501 x 8 05 02 FF FF FF FF FF FF 
11:49:13:8160 Rx 1 0x14FF3131 x 8 00 30 03 00 00 FF FF F0 
11:49:13:8160 Rx 1 0x18FDB400 x 8 51 24 51 24 FF FF FF FF 
11:49:13:8170 Rx 1 0xCF00400 x 8 08 7D 7D 00 00 00 FC 7D 
11:49:13:8170 Rx 1 0x18FD6601 x 8 FF 33 FF FF FF FF FF FF 
11:49:13:8180 Rx 1 0xCF00203 x 8 CC 00 00 0B FF 00 00 03 
11:49:13:8180 Rx 1 0x18FE6901 x 8 F3 23 96 23 FF FF CB 23 
11:49:13:8190 Rx 1 0x18FECA0B x 8 00 FF 00 00 00 00 FF FF 
11:49:13:8200 Rx 1 0x18FF3000 x 8 00 00 FF FF FF FF FF FF 
11:49:13:8200 Rx 1 0x18FFA63D x 8 00 FF 00 00 00 00 FF FF 
11:49:13:8210 Rx 1 0x18FE9701 x 8 FF FF FF FF FF FF FF FF 
11:49:13:8210 Rx 1 0x18FE9801 x 8 20 22 FF FF FF FF FF FF 
11:49:13:8220 Rx 1 0x18FE9901 x 8 00 7D FF FF FF FF FF FF 
11:49:13:8230 Rx 1 0x18FE9A01 x 8 08 24 FF FF FF FF FF FF 
11:49:13:8230 Rx 1 0x14FF2321 x 8 F4 5D E1 FF FF FF FF FF 
11:49:13:8240 Rx 1 0x18FEDD01 x 8 FF 00 00 FF FF FF FF FF 
11:49:13:8240 Rx 1 0x18FFAA01 x 8 00 00 67 06 71 7D 70 70 
11:49:13:8250 Rx 1 0x18FFAB01 x 8 24 17 08 00 7D 00 68 10 
11:49:13:8260 Rx 1 0xCF00400 x 8 08 7D 7D 00 00 00 FC 7D 
11:49:13:8260 Rx 1 0x18FFAC01 x 8 00 00 00 19 0C 00 F0 FF 
11:49:13:8270 Rx 1 0xCF00203 x 8 CC 00 00 0B FF 00 00 03 
11:49:13:8270 Rx 1 0x18FFAD01 x 8 69 00 FF FF FF FF FF FF 
11:49:13:8280 Rx 1 0xCF00300 x 8 D1 00 00 FF FF FF 00 FF 
11:49:13:8280 Rx 1 0x18FFAE01 x 8 00 FF 00 00 00 00 FF FF 
11:49:13:8290 Rx 1 0x14FFA000 x 8 FC FF FF FF FF FF FF FF 
11:49:13:8300 Rx 1 0xC000003 x 8 FB FF FA E1 FF F0 FF FF 
11:49:13:8300 Rx 1 0x18FEF200 x 8 00 00 00 00 D1 05 FF FF 
11:49:13:8320 Rx 1 0x18FD9B3D x 8 FF FF FF FF FF FF FF FF 
11:49:13:8330 Rx 1 0x8FE6E0B x 8 00 00 00 00 00 00 00 00 
11:49:13:8340 Rx 1 0x14FF0121 x 8 FF FF FF FF FF FF FC FF 
11:49:13:8350 Rx 1 0xCF00400 x 8 08 7D 7D 00 00 00 FC 7D 
11:49:13:8360 Rx 1 0xCF00203 x 8 CC 00 00 0B FF 00 00 03 
11:49:13:8360 Rx 1 0x18FEDF00 x 8 7D 00 13 FF 7D 00 00 FF 
11:49:13:8380 Rx 1 0x14F00031 x 8 CF FF FF FF FF FF FF FF 
11:49:13:8380 Rx 1 0x18E00021 x 8 FF FF FF FF FF FF FF FF 
11:49:13:8420 Rx 1 0x18F0233D x 8 FF FF FF FF FF 0C FF FF 
11:49:13:8420 Rx 1 0x18FD413D x 8 FF FF FF FF FC FC FC FC 
11:49:13:8440 Rx 1 0x14FF0221 x 8 FF FF FF FF FF FF FF FF 
11:49:13:8450 Rx 1 0xCF00400 x 8 08 7D 7D 00 00 00 FC 7D 
11:49:13:8460 Rx 1 0x1CEBFF00 x 8 05 FF FF 70 01 FF FF FF 
11:49:13:8460 Rx 1 0xCF00203 x 8 CC 00 00 0B FF 00 00 03 
11:49:13:8480 Rx 1 0x14F00131 x 8 FF FF FF FF 00 FF FF FF 
11:49:13:8480 Rx 1 0x18FEFF47 x 8 FF FF FF FF FF FF FF FF 
11:49:13:8510 Rx 1 0xCF00A01 x 8 00 00 00 00 FF FF FF FF 
11:49:13:8520 Rx 1 0x10F01A01 x 8 00 00 FF FF FF FF FF FF 
11:49:13:8530 Rx 1 0x8FE6E0B x 8 00 00 00 00 00 00 00 00 
11:49:13:8530 Rx 1 0x18FFA53D x 8 00 0A 39 1B 11 24 11 24 
11:49:13:8530 Rx 1 0x18EA4A17 x 3 E6 FE 00 
11:49:13:8540 Rx 1 0x18FD0517 x 8 43 03 3F FF FF FF FF FF 
11:49:13:8550 Rx 1 0x18F00E3D x 8 88 90 FF FF FF FF FF FF 
11:49:13:8550 Rx 1 0x18FD0417 x 8 D0 FF FF FF FF FF FF FF 
11:49:13:8560 Rx 1 0xCF00400 x 8 08 7D 7D 00 00 00 FC 7D 
11:49:13:8560 Rx 1 0x18F00F3D x 8 88 90 FF FF FF FF FF FF 
11:49:13:8570 Rx 1 0xCF00203 x 8 CC 00 00 0B FF 00 00 03 
11:49:13:8580 Rx 1 0x10FECA47 x 8 00 FF 00 00 00 00 FF FF 
11:49:13:8580 Rx 1 0x18FEE64A x 8 34 31 13 0B 64 23 FF F9 
11:49:13:8590 Rx 1 0x14FEF121 x 8 F7 FF FF CF FF FF FF FF 
11:49:13:8590 Rx 1 0x18FEF000 x 8 FF FF FF 00 00 FC 00 FF 
11:49:13:8600 Rx 1 0x18FEF717 x 8 FF FF FF FF FB 00 FF FF 
11:49:13:8600 Rx 1 0x18FEFA17 x 8 FF FE FE FF FF FF FF FF 
11:49:13:8610 Rx 1 0x18FF1817 x 8 01 00 00 40 00 00 FE FF 
11:49:13:8620 Rx 1 0x18FF1917 x 8 31 FF FF FF 40 00 00 E1 
11:49:13:8620 Rx 1 0x18FECA17 x 8 00 FF 00 00 00 00 FF FF 
11:49:13:8630 Rx 1 0x18FEFC17 x 8 FF 64 FF FF FF FF FF FF 
11:49:13:8630 Rx 1 0x18FEF117 x 8 F7 FF FF FF FF FF FF FF 
11:49:13:8640 Rx 1 0x18FF2017 x 8 00 00 00 00 00 00 00 00 
11:49:13:8640 Rx 1 0x10FF2121 x 8 32 00 0F C0 C0 FF FF 7D 
11:49:13:8650 Rx 1 0x18EA4A17 x 3 E8 FE 00 
11:49:13:8650 Rx 1 0xCF00400 x 8 08 7D 7D 00 00 00 FC 7D 
11:49:13:8660 Rx 1 0x18FEC117 x 8 96 66 7E 06 FF FF FF FF 
11:49:13:8670 Rx 1 0xCF00203 x 8 CC 00 00 0B FF 00 00 03 
11:49:13:8670 Rx 1 0x18FEE84A x 8 E0 04 00 00 FF FF BA 4E 
11:49:13:8680 Rx 1 0x10FECA31 x 8 00 FF 00 00 00 00 FF FF 
11:49:13:8680 Rx 1 0x18FEE000 x 8 FC 7E 42 00 FC 7E 42 00 
11:49:13:8690 Rx 1 0x14FEF131 x 8 CF FF FF F3 00 FF FF 30 
11:49:13:8730 Rx 1 0x8FE6E0B x 8 00 00 00 00 00 00 00 00 
11:49:13:8750 Rx 1 0xCF00400 x 8 08 7D 7D 00 00 00 FC 7D 
11:49:13:8760 Rx 1 0xCF00203 x 8 CC 00 00 0B FF 00 00 03 
11:49:13:8760 Rx 1 0xCF00300 x 8 D1 00 00 FF FF FF 00 FF 
11:49:13:8770 Rx 1 0x18FEF100 x 8 C7 00 00 00 00 00 00 30 
11:49:13:8780 Rx 1 0xCF00421 x 8 FF FF FF FF FF FF FF FF 
11:49:13:8780 Rx 1 0x10FECA21 x 8 00 FF 00 00 00 00 FF FF 
11:49:13:8850 Rx 1 0xCF00400 x 8 08 7D 7D 00 00 00 FC 7D 
11:49:13:8860 Rx 1 0xCF00203 x 8 CC 00 00 0B FF 00 00 03 
11:49:13:8860 Rx 1 0x18FEBF0B x 8 00 00 7D 7D 7D 7D FF FF 
11:49:13:8870 Rx 1 0x18FEDF00 x 8 7D 00 13 FF 7D 00 00 FF 
11:49:13:8870 Rx 1 0x18FE4A03 x 8 FF CD 00 FF C0 F3 FA FF 
11:49:13:8880 Rx 1 0x14FDA421 x 8 FF FF FF FF FF FF FF FF 
11:49:13:8890 Rx 1 0x18F00503 x 8 7D 00 00 7D 4E 20 4E 20 
11:49:13:8890 Rx 1 0x1CFEC347 x 8 FF FF FF FF FF FF FF FF 
11:49:13:8920 Rx 1 0x18F0233D x 8 FF FF FF FF FF 0C FF FF 
11:49:13:8930 Rx 1 0x8FE6E0B x 8 00 00 00 00 00 00 00 00 
11:49:13:8950 Rx 1 0xCF00400 x 8 08 7D 7D 00 00 00 FC 7D 
11:49:13:8960 Rx 1 0x1CEBFF00 x 8 06 FF FF FF FF FF FF FF 
11:49:13:8960 Rx 1 0xCF00203 x 8 CC 00 00 0B FF 00 00 03 
11:49:13:8970 Rx 1 0x18FE4F3E x 8 CF FF FF FF FF FF FF FF 
11:49:13:8970 Rx 1 0x18F00100 x 8 FF FF FF FF 00 FF FF FF 
11:49:13:8980 Rx 1 0x14FEF031 x 8 FF FF FF FF FF FC 00 FF 
11:49:13:9010 Rx 1 0xCF00A01 x 8 00 00 00 00 FF FF FF FF 
11:49:13:9020 Rx 1 0x10F01A01 x 8 00 00 FF FF FF FF FF FF 
11:49:13:9020 Rx 1 0x18F0010B x 8 00 00 D0 FF FF 0D FF FF 
11:49:13:9030 Rx 1 0x10FCFD01 x 8 FF FF FF FF 00 00 FF FF 
11:49:13:9030 Rx 1 0x18FD9401 x 8 20 42 FF FF 00 00 20 03 
11:49:13:9040 Rx 1 0x18FDA101 x 8 00 04 FF FF FF FF 00 FF 
11:49:13:9050 Rx 1 0x18FD3C3D x 8 00 00 FF FF FF FC FF FF 
11:49:13:9050 Rx 1 0x10FDA301 x 8 FF FF FF FF FF FF FF FF 
11:49:13:9060 Rx 1 0x18FDAA01 x 8 FF FF FF FF FF FF FF 33 
11:49:13:9060 Rx 1 0xCF00400 x 8 08 7D 7D 00 00 00 FC 7D 
11:49:13:9070 Rx 1 0x18FDD001 x 8 FF FF FF 00 33 FF FF FF 
11:49:13:9070 Rx 1 0xCF00203 x 8 CC 00 00 0B FF 00 00 03 
11:49:13:9080 Rx 1 0x18FDC40B x 8 1F 00 FF FF FF FF FF FF 
11:49:13:9090 Rx 1 0x18F0000F x 8 00 7D FF FF 0F 7D FF FF 
11:49:13:9090 Rx 1 0x18FF2421 x 8 83 F0 FF FF FF FF FF FF 
11:49:13:9100 Rx 1 0x1CFE9201 x 8 FF 00 71 FF FF FF FF FF 
11:49:13:9100 Rx 1 0x18FEDB01 x 8 B9 00 B9 00 B9 00 FF FF 
11:49:13:9110 Rx 1 0x18F00E3D x 8 88 90 FF FF FF FF FF FF 
11:49:13:9120 Rx 1 0x18F00F3D x 8 88 90 FF FF FF FF FF FF 
11:49:13:9120 Rx 1 0x18FD8C3D x 8 00 00 04 00 FF FF FF FF 
11:49:13:9130 Rx 1 0x8FE6E0B x 8 00 00 00 00 00 00 00 00 
11:49:13:9130 Rx 1 0x10FF2121 x 8 32 00 0F C0 C0 FF FF 7D 
11:49:13:9140 Rx 1 0x18FDB23D x 8 FF FF 13 24 00 00 FF FF 
11:49:13:9140 Rx 1 0x18FDB300 x 8 FF FF 51 24 FF FF FF FF 
11:49:13:9150 Rx 1 0x14FF3131 x 8 00 30 03 00 00 FF FF F0 
11:49:13:9160 Rx 1 0x18FDB400 x 8 51 24 51 24 FF FF FF FF 
11:49:13:9160 Rx 1 0xCF00400 x 8 08 7D 7D 00 00 00 FC 7D 
11:49:13:9170 Rx 1 0xCF00203 x 8 CC 00 00 0B FF 00 00 03 
